CITIFILE A.01.01
#Momentum: B.08.00.182 (*) 331.200 May  5 2008 
#Momentum Date and Time: Wed Apr 28 11:32:05 2010

NAME Momentum.SP

#  mode: MW    reference: S_50

CONSTANT NBR_OF_PORTS 1

CONSTANT NORMALIZATION 1

VAR freq MAG 393

DATA S[1,1] RI
DATA S_50[1,1] RI
DATA S_Z0[1,1] RI
DATA GAMMA[1] RI
DATA Z0[1] RI
DATA PORTZ[1] RI

VAR_LIST_BEGIN
	 1000000000
	 1000217014
	 1000434028
	 1000651042
	 1000868056
	 1001085069
	 1001302083
	 1001519097
	 1001736111
	 1001953125
	 1002170139
	 1002387153
	 1002604167
	 1002821181
	 1003038194
	 1003255208
	 1003472222
	 1003906250
	 1004340278
	 1004774306
	 1005208333
	 1005642361
	 1006076389
	 1006510417
	 1006944445
	 1007378472
	 1007812500
	 1008246528
	 1008680556
	 1009114583
	 1009548611
	 1009982639
	 1010416667
	 1010850695
	 1011284722
	 1011718750
	 1012152778
	 1012586806
	 1013020833
	 1013454861
	 1013888889
	 1014973958
	 1016059028
	 1017144097
	 1018229167
	 1019314236
	 1020399306
	 1021484375
	 1022569445
	 1023654514
	 1024739584
	 1025824653
	 1026909722
	 1027994792
	 1029079861
	 1030164931
	 1031250000
	 1032335070
	 1033420139
	 1034505209
	 1035590278
	 1036675348
	 1037760417
	 1038845486
	 1039930556
	 1041015625
	 1042100695
	 1043185764
	 1044270834
	 1045355903
	 1046440973
	 1047526042
	 1048611112
	 1049696181
	 1050781250
	 1051866320
	 1052951389
	 1054036459
	 1055121528
	 1056206598
	 1057291667
	 1058376737
	 1059461806
	 1060546875
	 1061631945
	 1062717014
	 1063802084
	 1064887153
	 1065972223
	 1067057292
	 1068142362
	 1069227431
	 1070312501
	 1071397570
	 1072482639
	 1073567709
	 1074652778
	 1076822917
	 1078993056
	 1081163195
	 1083333334
	 1085503473
	 1087673612
	 1089843751
	 1092013890
	 1094184028
	 1096354167
	 1098524306
	 1100694445
	 1102864584
	 1105034723
	 1107204862
	 1109375001
	 1111545139
	 1113715278
	 1115885417
	 1118055556
	 1120225695
	 1122395834
	 1124565973
	 1126736112
	 1128906250
	 1131076389
	 1133246528
	 1135416667
	 1137586806
	 1139756945
	 1141927084
	 1144097223
	 1146267361
	 1148437500
	 1150607639
	 1152777778
	 1156250000
	 1159722223
	 1163194445
	 1166666667
	 1170138889
	 1173611111
	 1177083334
	 1180555556
	 1184027778
	 1187500000
	 1190972223
	 1194444445
	 1197916667
	 1201388889
	 1204861111
	 1208333334
	 1211805556
	 1215277778
	 1218750000
	 1222222223
	 1225694445
	 1229166667
	 1232638889
	 1236111111
	 1239583334
	 1243055556
	 1246527778
	 1250000000
	 1253472222
	 1256944445
	 1260416667
	 1263888889
	 1267361111
	 1270833334
	 1274305556
	 1277777778
	 1279513889
	 1281250000
	 1282986111
	 1284722222
	 1286458333
	 1288194445
	 1289930556
	 1291666667
	 1293402778
	 1295138889
	 1296875000
	 1298611111
	 1300347222
	 1302083333
	 1303819444
	 1305555556
	 1307291667
	 1309027778
	 1310763889
	 1312500000
	 1314236111
	 1315972222
	 1317708333
	 1319444444
	 1321180555
	 1322916666
	 1324652778
	 1326388889
	 1328125000
	 1329861111
	 1331597222
	 1333333333
	 1335937500
	 1338541666
	 1341145833
	 1343750000
	 1346354166
	 1348958333
	 1351562500
	 1354166666
	 1356770833
	 1359375000
	 1361979166
	 1364583333
	 1367187500
	 1369791666
	 1372395833
	 1375000000
	 1377604166
	 1380208333
	 1382812500
	 1385416666
	 1388020833
	 1390625000
	 1393229166
	 1395833333
	 1398437500
	 1401041666
	 1403645833
	 1406250000
	 1408854166
	 1411458333
	 1414062500
	 1416666667
	 1419270833
	 1421875000
	 1424479167
	 1427083333
	 1429687500
	 1432291667
	 1434895833
	 1437500000
	 1440104167
	 1442708333
	 1445312500
	 1447916667
	 1450520833
	 1453125000
	 1455729167
	 1458333333
	 1460937500
	 1463541667
	 1466145833
	 1468750000
	 1471354167
	 1473958333
	 1476562500
	 1479166667
	 1481770833
	 1484375000
	 1486979167
	 1489583333
	 1492187500
	 1494791667
	 1497395833
	 1500000000
	 1502604167
	 1505208333
	 1507812500
	 1510416667
	 1513020833
	 1515625000
	 1518229167
	 1520833333
	 1523437500
	 1526041667
	 1528645833
	 1531250000
	 1533854167
	 1536458333
	 1539062500
	 1541666667
	 1544270833
	 1546875000
	 1549479167
	 1552083333
	 1554687500
	 1557291667
	 1559895833
	 1562500000
	 1565104167
	 1567708333
	 1570312500
	 1572916667
	 1575520833
	 1578125000
	 1580729167
	 1583333334
	 1585937500
	 1588541667
	 1591145834
	 1593750000
	 1596354167
	 1598958334
	 1601562500
	 1604166667
	 1606770834
	 1609375000
	 1611979167
	 1614583334
	 1617187500
	 1619791667
	 1622395834
	 1625000000
	 1627604167
	 1630208334
	 1632812500
	 1635416667
	 1638020834
	 1640625000
	 1643229167
	 1645833334
	 1648437500
	 1651041667
	 1653645834
	 1656250000
	 1658854167
	 1661458334
	 1664062500
	 1666666667
	 1671875000
	 1677083334
	 1682291667
	 1687500000
	 1692708334
	 1697916667
	 1703125000
	 1708333334
	 1713541667
	 1718750000
	 1723958334
	 1729166667
	 1734375000
	 1739583334
	 1744791667
	 1750000001
	 1755208334
	 1760416667
	 1765625001
	 1770833334
	 1776041667
	 1781250001
	 1786458334
	 1791666667
	 1796875001
	 1802083334
	 1807291667
	 1812500001
	 1817708334
	 1822916667
	 1828125001
	 1833333334
	 1838541667
	 1843750001
	 1848958334
	 1854166667
	 1859375001
	 1864583334
	 1869791667
	 1875000001
	 1880208334
	 1885416667
	 1890625000
	 1895833334
	 1901041667
	 1906250000
	 1911458334
	 1916666667
	 1921875000
	 1927083334
	 1932291667
	 1937500000
	 1942708334
	 1947916667
	 1953125000
	 1958333334
	 1963541667
	 1968750000
	 1973958333
	 1979166667
	 1984375000
	 1989583333
	 1994791667
	 2000000000
VAR_LIST_END

BEGIN
	-0.37262,	 0.35841
	-0.37329,	 0.36475
	-0.37388,	 0.37105
	-0.37437,	 0.37729
	-0.37479,	 0.38348
	-0.37512,	 0.38962
	-0.37537,	 0.39571
	-0.37554,	 0.40175
	-0.37564,	 0.40773
	-0.37566,	 0.41366
	-0.37561,	 0.41953
	-0.37548,	 0.42536
	-0.37529,	 0.43113
	-0.37504,	 0.43684
	-0.37471,	 0.4425
	-0.37433,	 0.44811
	-0.37388,	 0.45367
	-0.3728,	 0.46461
	-0.3715,	 0.47534
	-0.36998,	 0.48586
	-0.36826,	 0.49616
	-0.36634,	 0.50626
	-0.36425,	 0.51614
	-0.36198,	 0.52581
	-0.35956,	 0.53528
	-0.35698,	 0.54454
	-0.35425,	 0.55361
	-0.3514,	 0.56248
	-0.34842,	 0.57115
	-0.34531,	 0.57963
	-0.3421,	 0.58792
	-0.33879,	 0.59603
	-0.33537,	 0.60395
	-0.33186,	 0.6117
	-0.32827,	 0.61926
	-0.3246,	 0.62666
	-0.32085,	 0.63389
	-0.31704,	 0.64095
	-0.31315,	 0.64785
	-0.30921,	 0.65459
	-0.30521,	 0.66117
	-0.295,	 0.67697
	-0.28451,	 0.69187
	-0.27381,	 0.70591
	-0.26293,	 0.71913
	-0.25191,	 0.73159
	-0.24079,	 0.74332
	-0.22959,	 0.75437
	-0.21835,	 0.76476
	-0.20707,	 0.77455
	-0.19578,	 0.78375
	-0.18449,	 0.7924
	-0.17322,	 0.80054
	-0.16198,	 0.80818
	-0.15078,	 0.81536
	-0.13962,	 0.82209
	-0.12852,	 0.82841
	-0.11748,	 0.83432
	-0.1065,	 0.83986
	-0.095596,	 0.84505
	-0.084761,	 0.84989
	-0.074001,	 0.8544
	-0.063319,	 0.85861
	-0.052716,	 0.86252
	-0.042194,	 0.86615
	-0.031754,	 0.86951
	-0.021395,	 0.87261
	-0.01112,	 0.87547
	-0.00092759,	 0.87809
	 0.009182,	 0.88049
	 0.019209,	 0.88268
	 0.029154,	 0.88465
	 0.039016,	 0.88643
	 0.048798,	 0.88802
	 0.058498,	 0.88943
	 0.068119,	 0.89066
	 0.07766,	 0.89172
	 0.087123,	 0.89261
	 0.096509,	 0.89335
	 0.10581,	 0.89394
	 0.11505,	 0.89438
	 0.1242,	 0.89468
	 0.13329,	 0.89484
	 0.1423,	 0.89487
	 0.15124,	 0.89477
	 0.16011,	 0.89455
	 0.16891,	 0.8942
	 0.17764,	 0.89374
	 0.1863,	 0.89317
	 0.19489,	 0.89248
	 0.20342,	 0.89169
	 0.21188,	 0.89079
	 0.22028,	 0.8898
	 0.22861,	 0.8887
	 0.23688,	 0.88751
	 0.24509,	 0.88622
	 0.25323,	 0.88485
	 0.26934,	 0.88182
	 0.28521,	 0.87846
	 0.30085,	 0.87478
	 0.31627,	 0.87078
	 0.33146,	 0.86648
	 0.34643,	 0.86189
	 0.36119,	 0.85703
	 0.37574,	 0.8519
	 0.39009,	 0.84651
	 0.40423,	 0.84086
	 0.41818,	 0.83498
	 0.43193,	 0.82886
	 0.44548,	 0.82251
	 0.45885,	 0.81593
	 0.47202,	 0.80914
	 0.48501,	 0.80214
	 0.49781,	 0.79492
	 0.51043,	 0.78751
	 0.52287,	 0.77989
	 0.53513,	 0.77208
	 0.5472,	 0.76407
	 0.5591,	 0.75588
	 0.57082,	 0.7475
	 0.58236,	 0.73894
	 0.59372,	 0.73019
	 0.60491,	 0.72127
	 0.61591,	 0.71218
	 0.62674,	 0.70291
	 0.63739,	 0.69347
	 0.64786,	 0.68386
	 0.65815,	 0.67408
	 0.66826,	 0.66414
	 0.67818,	 0.65403
	 0.68792,	 0.64376
	 0.69748,	 0.63333
	 0.70685,	 0.62274
	 0.72146,	 0.60546
	 0.73557,	 0.58779
	 0.74918,	 0.56972
	 0.76228,	 0.55126
	 0.77486,	 0.53241
	 0.7869,	 0.51318
	 0.79839,	 0.49357
	 0.80931,	 0.47359
	 0.81964,	 0.45325
	 0.82936,	 0.43255
	 0.83845,	 0.41149
	 0.84688,	 0.3901
	 0.85463,	 0.36837
	 0.86166,	 0.34632
	 0.86795,	 0.32397
	 0.87347,	 0.30132
	 0.87816,	 0.27841
	 0.882,	 0.25526
	 0.88494,	 0.23189
	 0.88694,	 0.20834
	 0.88795,	 0.18465
	 0.88792,	 0.16087
	 0.88681,	 0.13707
	 0.88456,	 0.1133
	 0.88112,	 0.089646
	 0.87646,	 0.066199
	 0.87054,	 0.043067
	 0.86331,	 0.02037
	 0.85476,	-0.0017551
	 0.84489,	-0.023155
	 0.83371,	-0.043661
	 0.82127,	-0.063094
	 0.80763,	-0.08126
	 0.79291,	-0.097966
	 0.77725,	-0.11301
	 0.76085,	-0.12623
	 0.75245,	-0.13209
	 0.74396,	-0.13745
	 0.73541,	-0.14227
	 0.72686,	-0.14655
	 0.71833,	-0.15028
	 0.70987,	-0.15346
	 0.70153,	-0.15609
	 0.69335,	-0.15818
	 0.68539,	-0.15973
	 0.67768,	-0.16076
	 0.67028,	-0.16129
	 0.66322,	-0.16135
	 0.65655,	-0.16096
	 0.6503,	-0.16017
	 0.64452,	-0.159
	 0.63923,	-0.15752
	 0.63445,	-0.15575
	 0.63022,	-0.15376
	 0.62654,	-0.15158
	 0.62343,	-0.14928
	 0.62088,	-0.14691
	 0.6189,	-0.14452
	 0.61748,	-0.14216
	 0.61661,	-0.13988
	 0.61627,	-0.13773
	 0.61644,	-0.13575
	 0.61709,	-0.13399
	 0.61819,	-0.13248
	 0.61971,	-0.13126
	 0.62162,	-0.13035
	 0.62388,	-0.12979
	 0.62646,	-0.12958
	 0.63083,	-0.12998
	 0.63569,	-0.13127
	 0.64093,	-0.13347
	 0.64642,	-0.13658
	 0.65205,	-0.14059
	 0.65771,	-0.14547
	 0.66333,	-0.1512
	 0.66881,	-0.15773
	 0.67409,	-0.16501
	 0.6791,	-0.173
	 0.68378,	-0.18164
	 0.68811,	-0.19088
	 0.69203,	-0.20067
	 0.69552,	-0.21094
	 0.69857,	-0.22166
	 0.70114,	-0.23277
	 0.70324,	-0.24422
	 0.70485,	-0.25598
	 0.70597,	-0.26799
	 0.7066,	-0.28021
	 0.70674,	-0.29262
	 0.70639,	-0.30518
	 0.70557,	-0.31785
	 0.70427,	-0.33061
	 0.70251,	-0.34342
	 0.70029,	-0.35627
	 0.69762,	-0.36912
	 0.69452,	-0.38197
	 0.69099,	-0.39478
	 0.68705,	-0.40755
	 0.68271,	-0.42024
	 0.67798,	-0.43286
	 0.67286,	-0.44538
	 0.66738,	-0.45779
	 0.66154,	-0.47008
	 0.65535,	-0.48224
	 0.64882,	-0.49425
	 0.64197,	-0.50611
	 0.6348,	-0.51782
	 0.62733,	-0.52935
	 0.61956,	-0.54071
	 0.61151,	-0.55189
	 0.60318,	-0.56288
	 0.59459,	-0.57367
	 0.58574,	-0.58426
	 0.57664,	-0.59465
	 0.56731,	-0.60483
	 0.55775,	-0.6148
	 0.54796,	-0.62455
	 0.53797,	-0.63408
	 0.52777,	-0.64338
	 0.51738,	-0.65246
	 0.50679,	-0.66131
	 0.49603,	-0.66993
	 0.4851,	-0.67831
	 0.474,	-0.68646
	 0.46275,	-0.69437
	 0.45134,	-0.70205
	 0.4398,	-0.70948
	 0.42812,	-0.71667
	 0.4163,	-0.72362
	 0.40437,	-0.73033
	 0.39232,	-0.7368
	 0.38016,	-0.74302
	 0.3679,	-0.749
	 0.35554,	-0.75473
	 0.3431,	-0.76023
	 0.33056,	-0.76547
	 0.31795,	-0.77048
	 0.30526,	-0.77524
	 0.29251,	-0.77975
	 0.27969,	-0.78403
	 0.26682,	-0.78806
	 0.25389,	-0.79185
	 0.24092,	-0.79541
	 0.2279,	-0.79872
	 0.21485,	-0.8018
	 0.20176,	-0.80463
	 0.18865,	-0.80723
	 0.17551,	-0.8096
	 0.16235,	-0.81173
	 0.14918,	-0.81363
	 0.136,	-0.8153
	 0.12281,	-0.81673
	 0.10961,	-0.81794
	 0.096424,	-0.81892
	 0.083235,	-0.81967
	 0.070053,	-0.8202
	 0.056884,	-0.8205
	 0.043729,	-0.82058
	 0.030593,	-0.82043
	 0.017479,	-0.82007
	 0.0043892,	-0.81949
	-0.0086718,	-0.81868
	-0.021701,	-0.81766
	-0.034696,	-0.81643
	-0.047654,	-0.81498
	-0.06057,	-0.81331
	-0.073442,	-0.81143
	-0.086268,	-0.80934
	-0.099043,	-0.80704
	-0.11176,	-0.80453
	-0.12443,	-0.80181
	-0.13703,	-0.79888
	-0.14958,	-0.79574
	-0.16206,	-0.79239
	-0.17447,	-0.78884
	-0.1868,	-0.78508
	-0.19907,	-0.78112
	-0.21125,	-0.77695
	-0.22335,	-0.77258
	-0.23536,	-0.768
	-0.24729,	-0.76323
	-0.25912,	-0.75825
	-0.27085,	-0.75307
	-0.28248,	-0.7477
	-0.294,	-0.74212
	-0.30541,	-0.73635
	-0.31671,	-0.73038
	-0.32789,	-0.72422
	-0.33895,	-0.71786
	-0.34987,	-0.71131
	-0.36067,	-0.70458
	-0.37132,	-0.69765
	-0.38184,	-0.69055
	-0.3922,	-0.68326
	-0.40241,	-0.67579
	-0.41246,	-0.66814
	-0.43207,	-0.65233
	-0.45099,	-0.63585
	-0.46917,	-0.61875
	-0.48658,	-0.60105
	-0.50319,	-0.5828
	-0.51895,	-0.56406
	-0.53385,	-0.54486
	-0.54785,	-0.52527
	-0.56095,	-0.50535
	-0.57312,	-0.48514
	-0.58436,	-0.46472
	-0.59468,	-0.44415
	-0.60407,	-0.42349
	-0.61254,	-0.40279
	-0.62012,	-0.38212
	-0.62683,	-0.36153
	-0.63269,	-0.34106
	-0.63774,	-0.32077
	-0.64201,	-0.30069
	-0.64553,	-0.28087
	-0.64835,	-0.26134
	-0.65051,	-0.24212
	-0.65204,	-0.22324
	-0.65298,	-0.20471
	-0.65338,	-0.18656
	-0.65327,	-0.16878
	-0.65269,	-0.1514
	-0.65168,	-0.1344
	-0.65027,	-0.1178
	-0.64848,	-0.1016
	-0.64637,	-0.085788
	-0.64394,	-0.070361
	-0.64122,	-0.055315
	-0.63825,	-0.040644
	-0.63504,	-0.026339
	-0.63161,	-0.012393
	-0.62799,	 0.001203
	-0.62418,	 0.014458
	-0.62021,	 0.027382
	-0.61609,	 0.039983
	-0.61183,	 0.052271
	-0.60744,	 0.064255
	-0.60295,	 0.075944
	-0.59834,	 0.087346
	-0.59365,	 0.098471
	-0.58886,	 0.10932
	-0.584,	 0.11992
	-0.57906,	 0.13026
	-0.57406,	 0.14035
	-0.569,	 0.15021
	-0.56389,	 0.15983
	-0.55872,	 0.16923
	-0.55351,	 0.17841
	-0.54826,	 0.18738
	-0.54297,	 0.19614
	-0.53765,	 0.2047
	-0.5323,	 0.21306
	-0.52693,	 0.22123
	-0.52153,	 0.22922
	-0.51611,	 0.23703
	-0.51067,	 0.24466
	-0.50521,	 0.25211
	-0.49974,	 0.2594
	-0.49426,	 0.26653
END
BEGIN
	-0.37262,	 0.35841
	-0.37329,	 0.36475
	-0.37388,	 0.37105
	-0.37437,	 0.37729
	-0.37479,	 0.38348
	-0.37512,	 0.38962
	-0.37537,	 0.39571
	-0.37554,	 0.40175
	-0.37564,	 0.40773
	-0.37566,	 0.41366
	-0.37561,	 0.41953
	-0.37548,	 0.42536
	-0.37529,	 0.43113
	-0.37504,	 0.43684
	-0.37471,	 0.4425
	-0.37433,	 0.44811
	-0.37388,	 0.45367
	-0.3728,	 0.46461
	-0.3715,	 0.47534
	-0.36998,	 0.48586
	-0.36826,	 0.49616
	-0.36634,	 0.50626
	-0.36425,	 0.51614
	-0.36198,	 0.52581
	-0.35956,	 0.53528
	-0.35698,	 0.54454
	-0.35425,	 0.55361
	-0.3514,	 0.56248
	-0.34842,	 0.57115
	-0.34531,	 0.57963
	-0.3421,	 0.58792
	-0.33879,	 0.59603
	-0.33537,	 0.60395
	-0.33186,	 0.6117
	-0.32827,	 0.61926
	-0.3246,	 0.62666
	-0.32085,	 0.63389
	-0.31704,	 0.64095
	-0.31315,	 0.64785
	-0.30921,	 0.65459
	-0.30521,	 0.66117
	-0.295,	 0.67697
	-0.28451,	 0.69187
	-0.27381,	 0.70591
	-0.26293,	 0.71913
	-0.25191,	 0.73159
	-0.24079,	 0.74332
	-0.22959,	 0.75437
	-0.21835,	 0.76476
	-0.20707,	 0.77455
	-0.19578,	 0.78375
	-0.18449,	 0.7924
	-0.17322,	 0.80054
	-0.16198,	 0.80818
	-0.15078,	 0.81536
	-0.13962,	 0.82209
	-0.12852,	 0.82841
	-0.11748,	 0.83432
	-0.1065,	 0.83986
	-0.095596,	 0.84505
	-0.084761,	 0.84989
	-0.074001,	 0.8544
	-0.063319,	 0.85861
	-0.052716,	 0.86252
	-0.042194,	 0.86615
	-0.031754,	 0.86951
	-0.021395,	 0.87261
	-0.01112,	 0.87547
	-0.00092759,	 0.87809
	 0.009182,	 0.88049
	 0.019209,	 0.88268
	 0.029154,	 0.88465
	 0.039016,	 0.88643
	 0.048798,	 0.88802
	 0.058498,	 0.88943
	 0.068119,	 0.89066
	 0.07766,	 0.89172
	 0.087123,	 0.89261
	 0.096509,	 0.89335
	 0.10581,	 0.89394
	 0.11505,	 0.89438
	 0.1242,	 0.89468
	 0.13329,	 0.89484
	 0.1423,	 0.89487
	 0.15124,	 0.89477
	 0.16011,	 0.89455
	 0.16891,	 0.8942
	 0.17764,	 0.89374
	 0.1863,	 0.89317
	 0.19489,	 0.89248
	 0.20342,	 0.89169
	 0.21188,	 0.89079
	 0.22028,	 0.8898
	 0.22861,	 0.8887
	 0.23688,	 0.88751
	 0.24509,	 0.88622
	 0.25323,	 0.88485
	 0.26934,	 0.88182
	 0.28521,	 0.87846
	 0.30085,	 0.87478
	 0.31627,	 0.87078
	 0.33146,	 0.86648
	 0.34643,	 0.86189
	 0.36119,	 0.85703
	 0.37574,	 0.8519
	 0.39009,	 0.84651
	 0.40423,	 0.84086
	 0.41818,	 0.83498
	 0.43193,	 0.82886
	 0.44548,	 0.82251
	 0.45885,	 0.81593
	 0.47202,	 0.80914
	 0.48501,	 0.80214
	 0.49781,	 0.79492
	 0.51043,	 0.78751
	 0.52287,	 0.77989
	 0.53513,	 0.77208
	 0.5472,	 0.76407
	 0.5591,	 0.75588
	 0.57082,	 0.7475
	 0.58236,	 0.73894
	 0.59372,	 0.73019
	 0.60491,	 0.72127
	 0.61591,	 0.71218
	 0.62674,	 0.70291
	 0.63739,	 0.69347
	 0.64786,	 0.68386
	 0.65815,	 0.67408
	 0.66826,	 0.66414
	 0.67818,	 0.65403
	 0.68792,	 0.64376
	 0.69748,	 0.63333
	 0.70685,	 0.62274
	 0.72146,	 0.60546
	 0.73557,	 0.58779
	 0.74918,	 0.56972
	 0.76228,	 0.55126
	 0.77486,	 0.53241
	 0.7869,	 0.51318
	 0.79839,	 0.49357
	 0.80931,	 0.47359
	 0.81964,	 0.45325
	 0.82936,	 0.43255
	 0.83845,	 0.41149
	 0.84688,	 0.3901
	 0.85463,	 0.36837
	 0.86166,	 0.34632
	 0.86795,	 0.32397
	 0.87347,	 0.30132
	 0.87816,	 0.27841
	 0.882,	 0.25526
	 0.88494,	 0.23189
	 0.88694,	 0.20834
	 0.88795,	 0.18465
	 0.88792,	 0.16087
	 0.88681,	 0.13707
	 0.88456,	 0.1133
	 0.88112,	 0.089646
	 0.87646,	 0.066199
	 0.87054,	 0.043067
	 0.86331,	 0.02037
	 0.85476,	-0.0017551
	 0.84489,	-0.023155
	 0.83371,	-0.043661
	 0.82127,	-0.063094
	 0.80763,	-0.08126
	 0.79291,	-0.097966
	 0.77725,	-0.11301
	 0.76085,	-0.12623
	 0.75245,	-0.13209
	 0.74396,	-0.13745
	 0.73541,	-0.14227
	 0.72686,	-0.14655
	 0.71833,	-0.15028
	 0.70987,	-0.15346
	 0.70153,	-0.15609
	 0.69335,	-0.15818
	 0.68539,	-0.15973
	 0.67768,	-0.16076
	 0.67028,	-0.16129
	 0.66322,	-0.16135
	 0.65655,	-0.16096
	 0.6503,	-0.16017
	 0.64452,	-0.159
	 0.63923,	-0.15752
	 0.63445,	-0.15575
	 0.63022,	-0.15376
	 0.62654,	-0.15158
	 0.62343,	-0.14928
	 0.62088,	-0.14691
	 0.6189,	-0.14452
	 0.61748,	-0.14216
	 0.61661,	-0.13988
	 0.61627,	-0.13773
	 0.61644,	-0.13575
	 0.61709,	-0.13399
	 0.61819,	-0.13248
	 0.61971,	-0.13126
	 0.62162,	-0.13035
	 0.62388,	-0.12979
	 0.62646,	-0.12958
	 0.63083,	-0.12998
	 0.63569,	-0.13127
	 0.64093,	-0.13347
	 0.64642,	-0.13658
	 0.65205,	-0.14059
	 0.65771,	-0.14547
	 0.66333,	-0.1512
	 0.66881,	-0.15773
	 0.67409,	-0.16501
	 0.6791,	-0.173
	 0.68378,	-0.18164
	 0.68811,	-0.19088
	 0.69203,	-0.20067
	 0.69552,	-0.21094
	 0.69857,	-0.22166
	 0.70114,	-0.23277
	 0.70324,	-0.24422
	 0.70485,	-0.25598
	 0.70597,	-0.26799
	 0.7066,	-0.28021
	 0.70674,	-0.29262
	 0.70639,	-0.30518
	 0.70557,	-0.31785
	 0.70427,	-0.33061
	 0.70251,	-0.34342
	 0.70029,	-0.35627
	 0.69762,	-0.36912
	 0.69452,	-0.38197
	 0.69099,	-0.39478
	 0.68705,	-0.40755
	 0.68271,	-0.42024
	 0.67798,	-0.43286
	 0.67286,	-0.44538
	 0.66738,	-0.45779
	 0.66154,	-0.47008
	 0.65535,	-0.48224
	 0.64882,	-0.49425
	 0.64197,	-0.50611
	 0.6348,	-0.51782
	 0.62733,	-0.52935
	 0.61956,	-0.54071
	 0.61151,	-0.55189
	 0.60318,	-0.56288
	 0.59459,	-0.57367
	 0.58574,	-0.58426
	 0.57664,	-0.59465
	 0.56731,	-0.60483
	 0.55775,	-0.6148
	 0.54796,	-0.62455
	 0.53797,	-0.63408
	 0.52777,	-0.64338
	 0.51738,	-0.65246
	 0.50679,	-0.66131
	 0.49603,	-0.66993
	 0.4851,	-0.67831
	 0.474,	-0.68646
	 0.46275,	-0.69437
	 0.45134,	-0.70205
	 0.4398,	-0.70948
	 0.42812,	-0.71667
	 0.4163,	-0.72362
	 0.40437,	-0.73033
	 0.39232,	-0.7368
	 0.38016,	-0.74302
	 0.3679,	-0.749
	 0.35554,	-0.75473
	 0.3431,	-0.76023
	 0.33056,	-0.76547
	 0.31795,	-0.77048
	 0.30526,	-0.77524
	 0.29251,	-0.77975
	 0.27969,	-0.78403
	 0.26682,	-0.78806
	 0.25389,	-0.79185
	 0.24092,	-0.79541
	 0.2279,	-0.79872
	 0.21485,	-0.8018
	 0.20176,	-0.80463
	 0.18865,	-0.80723
	 0.17551,	-0.8096
	 0.16235,	-0.81173
	 0.14918,	-0.81363
	 0.136,	-0.8153
	 0.12281,	-0.81673
	 0.10961,	-0.81794
	 0.096424,	-0.81892
	 0.083235,	-0.81967
	 0.070053,	-0.8202
	 0.056884,	-0.8205
	 0.043729,	-0.82058
	 0.030593,	-0.82043
	 0.017479,	-0.82007
	 0.0043892,	-0.81949
	-0.0086718,	-0.81868
	-0.021701,	-0.81766
	-0.034696,	-0.81643
	-0.047654,	-0.81498
	-0.06057,	-0.81331
	-0.073442,	-0.81143
	-0.086268,	-0.80934
	-0.099043,	-0.80704
	-0.11176,	-0.80453
	-0.12443,	-0.80181
	-0.13703,	-0.79888
	-0.14958,	-0.79574
	-0.16206,	-0.79239
	-0.17447,	-0.78884
	-0.1868,	-0.78508
	-0.19907,	-0.78112
	-0.21125,	-0.77695
	-0.22335,	-0.77258
	-0.23536,	-0.768
	-0.24729,	-0.76323
	-0.25912,	-0.75825
	-0.27085,	-0.75307
	-0.28248,	-0.7477
	-0.294,	-0.74212
	-0.30541,	-0.73635
	-0.31671,	-0.73038
	-0.32789,	-0.72422
	-0.33895,	-0.71786
	-0.34987,	-0.71131
	-0.36067,	-0.70458
	-0.37132,	-0.69765
	-0.38184,	-0.69055
	-0.3922,	-0.68326
	-0.40241,	-0.67579
	-0.41246,	-0.66814
	-0.43207,	-0.65233
	-0.45099,	-0.63585
	-0.46917,	-0.61875
	-0.48658,	-0.60105
	-0.50319,	-0.5828
