CITIFILE A.01.01
#Momentum: B.08.00.182 (*) 331.200 May  5 2008 
#Momentum Date and Time: Wed Apr 28 11:30:29 2010

NAME PortSet1/TwoP0_Dsolver_data/first_odd_mode_is_1/most_even_mode_is_1/PMLG4/LS0

CONSTANT NBR_OF_PORTS 2

VAR freq MAG 9

DATA GAMMA_1[1] RI
DATA GAMMA_1[2] RI
DATA Z0_1[1,1] RI
DATA Z0_1[1,2] RI
DATA Z0_1[2,1] RI
DATA Z0_1[2,2] RI
DATA LAMBADAI_1[1,1] RI
DATA LAMBADAI_1[1,2] RI
DATA LAMBADAI_1[2,1] RI
DATA LAMBADAI_1[2,2] RI
DATA Zcir_1[1,1] RI
DATA Zcir_1[1,2] RI
DATA Zcir_1[2,1] RI
DATA Zcir_1[2,2] RI
DATA Ycir_1[1,1] RI
DATA Ycir_1[1,2] RI
DATA Ycir_1[2,1] RI
DATA Ycir_1[2,2] RI

VAR_LIST_BEGIN
	 1000000000
	 1010000000
	 1020000000
	 1030000000
	 1128970009
	 1457430236
	 1682382272
	 1907334308
	 2000000000
VAR_LIST_END

BEGIN
	-0,	 21.56084048
	-0,	 21.7782699
	-0,	 21.99572834
	-0,	 22.21321567
	-0,	 24.36723367
	-0,	 31.53559141
	-0,	 36.4619825
	-0,	 41.40203115
	-0,	 43.44098814
END
BEGIN
	-0,	 32.25534464
	-0,	 32.57821859
	-0,	 32.90102487
	-0,	 33.22392152
	-0,	 36.42034005
	-0,	 47.03889153
	-0,	 54.31608672
	-0,	 61.61392972
	-0,	 64.62085097
END
BEGIN
	 225.361678,	 0
	 224.7396419,	 0
	 224.1245488,	 0
	 223.5152971,	 0
	 217.8020154,	 0
	 202.0773999,	 0
	 193.3927693,	 0
	 185.8533261,	 0
	 183.03675,	 0
END
BEGIN
	 178.5953336,	 0
	 177.9702262,	 0
	 177.3517191,	 0
	 176.7394142,	 0
	 170.9966111,	 0
	 155.1821171,	 0
	 146.4266667,	 0
	 138.8515695,	 0
	 136.0149965,	 0
END
BEGIN
	 178.5953336,	 0
	 177.9702262,	 0
	 177.3517191,	 0
	 176.7394142,	 0
	 170.9966111,	 0
	 155.1821171,	 0
	 146.4266667,	 0
	 138.8515695,	 0
	 136.0149965,	 0
END
BEGIN
	 181.1009147,	 0
	 180.4723866,	 0
	 179.8502963,	 0
	 179.234598,	 0
	 173.4590393,	 0
	 157.5455339,	 0
	 148.7219083,	 0
	 141.099868,	 0
	 138.2420915,	 0
END
BEGIN
	 0,	 30.95355702
	 0,	 31.26334915
	 0,	 31.5730774
	 0,	 31.88288767
	 0,	 34.94965987
	 0,	 45.13617645
	 0,	 52.11627815
	 0,	 59.11504351
	 0,	 61.99857941
END
BEGIN
	 0,	-1.277795573
	 0,	-1.290524965
	 0,	-1.303247156
	 0,	-1.315976987
	 0,	-1.441985607
	 0,	-1.860546895
	 0,	-2.147069495
	 0,	-2.434853854
	 0,	-2.553258467
END
BEGIN
	 0,	-9.569075372
	 0,	-9.66400588
	 0,	-9.758867632
	 0,	-9.853787366
	 0,	-10.79300953
	 0,	-13.90883418
	 0,	-16.03881658
	 0,	-18.17883331
	 0,	-19.05919216
END
BEGIN
	 0,	 22.8626281
	 0,	 23.09313934
	 0,	 23.32367581
	 0,	 23.55424951
	 0,	 25.83791384
	 0,	 33.43830649
	 0,	 38.66179108
	 0,	 43.90091736
	 0,	 46.0632597
END
BEGIN
	 1.591186184e-017,	 2.225012642e-009
	-1.090060975e-017,	 2.219486191e-009
	 5.655016914e-018,	 2.214020868e-009
	-3.403400395e-018,	 2.208608154e-009
	 2.596899267e-017,	 2.157855108e-009
	-2.742332293e-017,	 2.018241361e-009
	 2.761942401e-017,	 1.941184603e-009
	 2.856945998e-017,	 1.874411113e-009
	 4.961717574e-017,	 1.849479466e-009
END
BEGIN
	 1.083877999e-017,	 1.603331472e-009
	-2.90294623e-018,	 1.597774462e-009
	 5.295144491e-018,	 1.592276145e-009
	-9.357837772e-018,	 1.586832807e-009
	 1.941954588e-017,	 1.535776547e-009
	-3.44839416e-017,	 1.395154637e-009
	 1.650748832e-017,	 1.317297771e-009
	 4.17201957e-017,	 1.249933812e-009
	 3.657635468e-017,	 1.224712842e-009
END
BEGIN
	 1.083877999e-017,	 1.603331472e-009
	-2.90294623e-018,	 1.597774462e-009
	 5.295144491e-018,	 1.592276145e-009
	-9.357837772e-018,	 1.586832807e-009
	 1.941954588e-017,	 1.535776547e-009
	-3.44839416e-017,	 1.395154637e-009
	 1.650748832e-017,	 1.317297771e-009
	 4.17201957e-017,	 1.249933812e-009
	 3.657635468e-017,	 1.224712842e-009
END
BEGIN
	 1.128927308e-017,	 1.652777478e-009
	-3.909888842e-018,	 1.64719011e-009
	 5.231309618e-018,	 1.641659911e-009
	-8.363976037e-018,	 1.636186492e-009
	 1.986405026e-017,	 1.584840801e-009
	-3.267067801e-017,	 1.443353912e-009
	 1.754497343e-017,	 1.364902701e-009
	 3.874279323e-017,	 1.297144179e-009
	 3.722830295e-017,	 1.271742768e-009
END
BEGIN
	-3.227622999e-016,	 3.922808802e-008
	 5.255722741e-016,	 3.922859301e-008
	-1.749421182e-017,	 3.922886239e-008
	-4.050733125e-016,	 3.922937288e-008
	-4.090138538e-016,	 3.923471313e-008
	-5.161803976e-016,	 3.925566379e-008
	-7.099579888e-016,	 3.926209964e-008
	 9.389338497e-016,	 3.929042568e-008
	-8.017398293e-016,	 3.929822876e-008
END
BEGIN
	 3.229810573e-016,	-3.91084064e-008
	-5.335025628e-016,	-3.910921515e-008
	 1.506326516e-017,	-3.910983136e-008
	 4.172905508e-016,	-3.911065324e-008
	 4.059083293e-016,	-3.911923797e-008
	 5.505919213e-016,	-3.915261535e-008
	 7.138647454e-016,	-3.917067736e-008
	-9.974428981e-016,	-3.920683148e-008
	 7.89912597e-016,	-3.921883099e-008
END
BEGIN
	 3.229810573e-016,	-3.91084064e-008
	-5.335025628e-016,	-3.910921515e-008
	 1.506326516e-017,	-3.910983136e-008
	 4.172905508e-016,	-3.911065324e-008
	 4.059083293e-016,	-3.911923797e-008
	 5.505919213e-016,	-3.915261535e-008
	 7.138647454e-016,	-3.917067736e-008
	-9.974428981e-016,	-3.920683148e-008
	 7.89912597e-016,	-3.921883099e-008
END
BEGIN
	-3.719843848e-016,	 4.613664039e-008
	 5.581493568e-016,	 4.616327634e-008
	-3.56500098e-017,	 4.618968094e-008
	-3.921377712e-016,	 4.62161726e-008
	-4.965075996e-016,	 4.647485451e-008
	-3.970417837e-016,	 4.729701542e-008
	-8.300625498e-016,	 4.783088901e-008
	 7.776646893e-016,	 4.83628284e-008
	-1.054732111e-015,	 4.857631325e-008
END
