CITIFILE A.01.01
#Momentum: B.08.00.182 (*) 331.200 May  5 2008 
#Momentum Date and Time: Wed Apr 28 11:32:05 2010

NAME Momentum.SP

#  mode: MW    project: C:\Users\APLPrj02\AppData\Local\Temp\15832052\proj    reference: S_50

CONSTANT NBR_OF_PORTS 1

CONSTANT NORMALIZATION 1

VAR freq MAG 11

DATA S[1,1] RI
DATA S_50[1,1] RI
DATA S_Z0[1,1] RI
DATA GAMMA[1] RI
DATA Z0[1] RI
DATA PORTZ[1] RI

VAR_LIST_BEGIN
	 1000000000
	 1013888889
	 1083333334
	 1152777778
	 1166666667
	 1277777778
	 1333333333
	 1500000000
	 1666666667
	 1833333334
	 2000000000
VAR_LIST_END

BEGIN
	-0.372621504,	 0.358414537
	-0.305217112,	 0.661179784
	 0.316271184,	 0.870781834
	 0.706859505,	 0.622742039
	 0.762286491,	 0.55126037
	 0.760857042,	-0.126230669
	 0.626465686,	-0.129584343
	 0.380168214,	-0.743026466
	-0.41246875,	-0.668143156
	-0.643940981,	-0.0703612621
	-0.494267348,	 0.266533107
END
BEGIN
	-0.372621504,	 0.358414537
	-0.305217112,	 0.661179784
	 0.316271184,	 0.870781834
	 0.706859505,	 0.622742039
	 0.762286491,	 0.55126037
	 0.760857042,	-0.126230669
	 0.626465686,	-0.129584343
	 0.380168214,	-0.743026466
	-0.41246875,	-0.668143156
	-0.643940981,	-0.0703612621
	-0.494267348,	 0.266533107
END
BEGIN
	-0.310051025,	 0.373799216
	-0.219779327,	 0.683011444
	 0.416659525,	 0.831326794
	 0.759385896,	 0.56652503
	 0.805001259,	 0.498042736
	 0.788493766,	-0.113818461
	 0.666913838,	-0.118701481
	 0.474694953,	-0.699363247
	-0.314029626,	-0.704875801
	-0.596649321,	-0.0773487172
	-0.426051737,	 0.28664246
END
BEGIN
	 6.43908698e-026,	 32.2553446
	 3.64948578e-022,	 32.7037625
	 9.94447925e-021,	 34.9462546
	 1.14206256e-022,	 37.1894466
	 1.85546058e-022,	 37.6381613
	 5.92659348e-022,	 41.2288915
	 5.58017607e-022,	 43.0249777
	 6.90351285e-024,	 48.4157285
	 1.2663721e-024,	 53.8075642
	 1.97121649e-020,	 59.2105681
	 7.85940562e-026,	 64.6208509
END
BEGIN
	 44.2118709,	-5.72004923e-017
	 44.187711,	 7.97686795e-017
	 44.068689,	-1.86015389e-016
	 43.952378,	-6.56914007e-017
	 43.9293226,	-6.56411448e-017
	 43.748381,	-6.27198797e-017
	 43.6604759,	-5.96239946e-017
	 43.4068356,	-5.15173282e-017
	 43.163331,	-6.97030011e-017
	 42.9259918,	 8.34206948e-018
	 42.6966506,	-7.19835783e-017
END
BEGIN
	 50,	 0
	 50,	 0
	 50,	 0
	 50,	 0
	 50,	 0
	 50,	 0
	 50,	 0
	 50,	 0
	 50,	 0
	 50,	 0
	 50,	 0
END
