CITIFILE A.01.01
COMMENT Dataset Name: /BFR91/BIAS5V20mA
COMMENT Modified: 14-Nov-94 16:16:07
NAME DATAvsFREQ
COMMENT #MDS DATATYPE SP

COMMENT #MDS VARTABLE FREQUENCIES
VAR FREQ MAG 101

DATA S[1,1] RI
DATA S[1,2] RI
DATA S[2,1] RI
DATA S[2,2] RI

SEG_LIST_BEGIN
SEG 500000000 2000000000 101
SEG_LIST_END

BEGIN
-0.0254707336425781,-0.0325107574462891
-0.0268545150756836,-0.0274734497070312
-0.0295705795288086,-0.024876594543457
-0.0253772735595703,-0.0179595947265625
-0.0314750671386719,-0.0129642486572266
-0.0272045135498047,-0.00995922088623047
-0.0302762985229492,-0.00767612457275391
-0.0297870635986328,-0.00404071807861328
-0.0301923751831055,-0.000376701354980469
-0.0319118499755859,0.00525474548339844
-0.0317974090576172,0.00921249389648438
-0.0324363708496094,0.0127010345458984
-0.0326900482177734,0.0143718719482422
-0.0335483551025391,0.0185108184814453
-0.03216552734375,0.0227069854736328
-0.0328140258789062,0.0264301300048828
-0.0330924987792969,0.0297756195068359
-0.0332603454589844,0.0348472595214844
-0.0344600677490234,0.0371742248535156
-0.0335350036621094,0.0394821166992188
-0.0348739624023438,0.041259765625
-0.0344371795654297,0.0451488494873047
-0.0348072052001953,0.0483722686767578
-0.0357589721679688,0.052337646484375
-0.0382328033447266,0.0529422760009766
-0.0337772369384766,0.0575332641601562
-0.0354785919189453,0.0592517852783203
-0.0362091064453125,0.0630416870117188
-0.0375404357910156,0.0654296875
-0.0379371643066406,0.0710029602050781
-0.0349960327148438,0.0740470886230469
-0.0358352661132812,0.0761146545410156
-0.0370140075683594,0.0801200866699219
-0.0359039306640625,0.0824470520019531
-0.0380668640136719,0.0825386047363281
-0.0355110168457031,0.0859489440917969
-0.0349998474121094,0.0871543884277344
-0.0366058349609375,0.0899085998535156
-0.0370368957519531,0.0955390930175781
-0.0373725891113281,0.0978507995605469
-0.0358314514160156,0.100536346435547
-0.0354537963867188,0.10107421875
-0.0336341857910156,0.104408264160156
-0.0336418151855469,0.107887268066406
-0.031768798828125,0.109779357910156
-0.0342483520507812,0.111705780029297
-0.0320549011230469,0.117313385009766
-0.0348396301269531,0.116954803466797
-0.0320281982421875,0.119586944580078
-0.0341720581054688,0.121780395507812
-0.0309219360351562,0.124130249023438
-0.032958984375,0.125221252441406
-0.0339126586914062,0.127403259277344
-0.0322799682617188,0.134666442871094
-0.0317306518554688,0.137596130371094
-0.0302658081054688,0.137222290039062
-0.0286941528320312,0.140853881835938
-0.0287857055664062,0.142684936523438
-0.0288009643554688,0.144668579101562
-0.0271835327148438,0.147079467773438
-0.030181884765625,0.147300720214844
-0.0272064208984375,0.153030395507812
-0.0270919799804688,0.156867980957031
-0.0277938842773438,0.158554077148438
-0.0263290405273438,0.162940979003906
-0.0271530151367188,0.1634521484375
-0.025054931640625,0.164810180664062
-0.0250930786132812,0.168899536132812
-0.0226821899414062,0.169532775878906
-0.0213470458984375,0.174034118652344
-0.0221176147460938,0.177803039550781
-0.0219345092773438,0.1783447265625
-0.0213546752929688,0.179710388183594
-0.0201416015625,0.185684204101562
-0.0185699462890625,0.185752868652344
-0.0191268920898438,0.189544677734375
-0.0192947387695312,0.191322326660156
-0.0167999267578125,0.191200256347656
-0.0169525146484375,0.196792602539062
-0.0148696899414062,0.197410583496094
-0.0183334350585938,0.198646545410156
-0.0140762329101562,0.200820922851562
-0.01409912109375,0.205116271972656
-0.0117111206054688,0.206306457519531
-0.0133285522460938,0.207633972167969
-0.015716552734375,0.2122802734375
-0.0129013061523438,0.213088989257812
-0.0130157470703125,0.215545654296875
-0.0159683227539062,0.216064453125
-0.0117034912109375,0.221099853515625
-0.0161285400390625,0.220924377441406
-0.01318359375,0.2239990234375
-0.017822265625,0.225387573242188
-0.0132293701171875,0.240623474121094
-0.0158538818359375,0.231857299804688
-0.0192413330078125,0.228225708007812
-0.0179595947265625,0.229522705078125
-0.0218276977539062,0.234001159667969
-0.0207366943359375,0.233604431152344
-0.0214309692382812,0.235153198242188
-0.024932861328125,0.236083984375
END
BEGIN
0.0217361450195312,0.0733833312988281
0.0230026245117188,0.0738754272460938
0.0241851806640625,0.0771026611328125
0.0246772766113281,0.0788383483886719
0.0252647399902344,0.080108642578125
0.0273094177246094,0.0830459594726562
0.0272636413574219,0.085052490234375
0.0288963317871094,0.0873947143554688
0.0287551879882812,0.0887107849121094
0.0294265747070312,0.0912971496582031
0.0312919616699219,0.092987060546875
0.0323715209960938,0.0949554443359375
0.0330276489257812,0.0963859558105469
0.0338935852050781,0.0983200073242188
0.035186767578125,0.100395202636719
0.0363349914550781,0.102531433105469
0.037353515625,0.105621337890625
0.0391464233398438,0.107345581054688
0.0401268005371094,0.10888671875
0.0405769348144531,0.110496520996094
0.042205810546875,0.111946105957031
0.0430755615234375,0.113540649414062
0.0454177856445312,0.115806579589844
0.0464363098144531,0.117458343505859
0.0461578369140625,0.119632720947266
0.048828125,0.120742797851562
0.0497589111328125,0.123622894287109
0.0518226623535156,0.123928070068359
0.05218505859375,0.125625610351562
0.0555038452148438,0.127250671386719
0.0576858520507812,0.130027770996094
0.0568084716796875,0.131111145019531
0.0596084594726562,0.133049011230469
0.0598220825195312,0.134880065917969
0.0615158081054688,0.136695861816406
0.0631561279296875,0.137428283691406
0.064453125,0.138999938964844
0.0676345825195312,0.140350341796875
0.0671844482421875,0.14361572265625
0.071533203125,0.145004272460938
0.0700302124023438,0.145927429199219
0.0736083984375,0.148162841796875
0.0740890502929688,0.14813232421875
0.0747528076171875,0.150367736816406
0.0769882202148438,0.153434753417969
0.0775146484375,0.154586791992188
0.0811843872070312,0.15484619140625
0.0828170776367188,0.156944274902344
0.0864334106445312,0.156791687011719
0.086639404296875,0.160072326660156
0.086456298828125,0.160820007324219
0.0904159545898438,0.162345886230469
0.0912246704101562,0.163871765136719
0.0946044921875,0.164535522460938
0.095184326171875,0.165328979492188
0.0970458984375,0.166313171386719
0.09820556640625,0.169441223144531
0.0996170043945312,0.171867370605469
0.102249145507812,0.169776916503906
0.10430908203125,0.17230224609375
0.106536865234375,0.173301696777344
0.106231689453125,0.175590515136719
0.110710144042969,0.176689147949219
0.111701965332031,0.177047729492188
0.1153564453125,0.17852783203125
0.116676330566406,0.180397033691406
0.119110107421875,0.182029724121094
0.119575500488281,0.181541442871094
0.124305725097656,0.181564331054688
0.125198364257812,0.183135986328125
0.127174377441406,0.184494018554688
0.129486083984375,0.187103271484375
0.131698608398438,0.187919616699219
0.132675170898438,0.188232421875
0.1358642578125,0.190513610839844
0.136299133300781,0.191474914550781
0.137840270996094,0.191024780273438
0.141006469726562,0.191665649414062
0.144729614257812,0.194984436035156
0.143714904785156,0.195121765136719
0.147125244140625,0.195060729980469
0.149856567382812,0.1976318359375
0.153053283691406,0.196342468261719
0.153739929199219,0.198440551757812
0.157554626464844,0.198654174804688
0.158943176269531,0.2001953125
0.161018371582031,0.200691223144531
0.164154052734375,0.201438903808594
0.165702819824219,0.203514099121094
0.169639587402344,0.203895568847656
0.172653198242188,0.204788208007812
0.173789978027344,0.205215454101562
0.176773071289062,0.205665588378906
0.1796875,0.208015441894531
0.180488586425781,0.205528259277344
0.183540344238281,0.207855224609375
0.185417175292969,0.208854675292969
0.189079284667969,0.210746765136719
0.191001892089844,0.210380554199219
0.192527770996094,0.21148681640625
0.197624206542969,0.212554931640625
END
BEGIN
0.874267578125,6.03955078125
0.919921875,5.8330078125
0.96435546875,5.660888671875
1.048583984375,5.502197265625
1.043701171875,5.345947265625
1.105224609375,5.204833984375
1.109130859375,5.052490234375
1.1748046875,4.918701171875
1.1884765625,4.80908203125
1.19677734375,4.692626953125
1.26611328125,4.572998046875
1.26904296875,4.45849609375
1.282958984375,4.347412109375
1.313232421875,4.257568359375
1.33642578125,4.163818359375
1.353759765625,4.068115234375
1.35693359375,3.9561767578125
1.3719482421875,3.8770751953125
1.388671875,3.809326171875
1.4134521484375,3.7330322265625
1.4306640625,3.6370849609375
1.406005859375,3.565185546875
1.4410400390625,3.4849853515625
1.4678955078125,3.4207763671875
1.4654541015625,3.3582763671875
1.4398193359375,3.281982421875
1.45166015625,3.203369140625
1.478515625,3.1484375
1.50244140625,3.1011962890625
1.4781494140625,3.0264892578125
1.4989013671875,2.9781494140625
1.5167236328125,2.88330078125
1.5550537109375,2.830322265625
1.5247802734375,2.806396484375
1.54833984375,2.760009765625
1.544677734375,2.6680908203125
1.5662841796875,2.61962890625
1.576904296875,2.60791015625
1.55322265625,2.533203125
1.555419921875,2.501220703125
1.5584716796875,2.4739990234375
1.5826416015625,2.4139404296875
1.6138916015625,2.3724365234375
1.5941162109375,2.3515625
1.553466796875,2.28125
1.5830078125,2.2423095703125
1.6165771484375,2.2215576171875
1.577392578125,2.1805419921875
1.6051025390625,2.109375
1.5821533203125,2.1007080078125
1.5772705078125,2.0582275390625
1.62353515625,2.01318359375
1.60943603515625,1.987060546875
1.6044921875,1.96026611328125
1.5985107421875,1.9229736328125
1.5963134765625,1.90484619140625
1.59918212890625,1.87408447265625
1.60638427734375,1.84588623046875
1.600830078125,1.78204345703125
1.60723876953125,1.73358154296875
1.61859130859375,1.72955322265625
1.6468505859375,1.68963623046875
1.61309814453125,1.68145751953125
1.632080078125,1.6396484375
1.61920166015625,1.6195068359375
1.63214111328125,1.6119384765625
1.60589599609375,1.564453125
1.61334228515625,1.55523681640625
1.630859375,1.52154541015625
1.61871337890625,1.48992919921875
1.621826171875,1.4737548828125
1.6201171875,1.445556640625
1.63201904296875,1.43994140625
1.61431884765625,1.40362548828125
1.6143798828125,1.36822509765625
1.60833740234375,1.357421875
1.63531494140625,1.3326416015625
1.5927734375,1.28387451171875
1.5889892578125,1.27435302734375
1.61932373046875,1.25274658203125
1.58709716796875,1.2159423828125
1.60211181640625,1.19732666015625
1.62872314453125,1.1943359375
1.600830078125,1.15411376953125
1.60546875,1.14593505859375
1.60791015625,1.12054443359375
1.60919189453125,1.084716796875
1.59967041015625,1.05670166015625
1.5924072265625,1.0570068359375
1.6180419921875,1.041748046875
1.59576416015625,1.0313720703125
1.59686279296875,1.03594970703125
1.6083984375,0.96636962890625
1.6121826171875,0.9818115234375
1.5843505859375,0.9527587890625
1.6053466796875,0.966064453125
1.58306884765625,0.9366455078125
1.58428955078125,0.91693115234375
1.60150146484375,0.88433837890625
1.60577392578125,0.869384765625
1.60723876953125,0.84283447265625
END
BEGIN
0.432205200195312,-0.176620483398438
0.43194580078125,-0.178237915039062
0.4287109375,-0.177581787109375
0.4261474609375,-0.177902221679688
0.421661376953125,-0.177978515625
0.424301147460938,-0.183273315429688
0.41949462890625,-0.180770874023438
0.41827392578125,-0.1822509765625
0.418197631835938,-0.183441162109375
0.417022705078125,-0.184188842773438
0.415679931640625,-0.1842041015625
0.412033081054688,-0.185791015625
0.411422729492188,-0.18890380859375
0.406204223632812,-0.18951416015625
0.4034423828125,-0.189102172851562
0.403701782226562,-0.191513061523438
0.403182983398438,-0.191848754882812
0.402191162109375,-0.196075439453125
0.402084350585938,-0.195510864257812
0.3968505859375,-0.198989868164062
0.396759033203125,-0.199478149414062
0.395034790039062,-0.201095581054688
0.391647338867188,-0.204818725585938
0.389114379882812,-0.20489501953125
0.386688232421875,-0.209442138671875
0.385177612304688,-0.205612182617188
0.381668090820312,-0.208770751953125
0.379501342773438,-0.209274291992188
0.376312255859375,-0.20977783203125
0.372421264648438,-0.212127685546875
0.374526977539062,-0.213043212890625
0.37139892578125,-0.218643188476562
0.365570068359375,-0.214035034179688
0.366500854492188,-0.218276977539062
0.3646240234375,-0.218353271484375
0.3609619140625,-0.219985961914062
0.3603515625,-0.22100830078125
0.35504150390625,-0.227783203125
0.35125732421875,-0.226593017578125
0.351150512695312,-0.226699829101562
0.348587036132812,-0.227783203125
0.345550537109375,-0.22747802734375
0.341476440429688,-0.228530883789062
0.342910766601562,-0.231124877929688
0.342330932617188,-0.233078002929688
0.336700439453125,-0.229324340820312
0.334686279296875,-0.23370361328125
0.331222534179688,-0.23486328125
0.328033447265625,-0.236160278320312
0.324447631835938,-0.236495971679688
0.321823120117188,-0.236907958984375
0.319473266601562,-0.240325927734375
0.3206787109375,-0.242431640625
0.314620971679688,-0.24169921875
0.311569213867188,-0.24151611328125
0.30914306640625,-0.242202758789062
0.305892944335938,-0.242355346679688
0.305023193359375,-0.243133544921875
0.301849365234375,-0.246719360351562
0.300735473632812,-0.24951171875
0.29742431640625,-0.249526977539062
0.293869018554688,-0.248458862304688
0.290206909179688,-0.251449584960938
0.287551879882812,-0.250442504882812
0.28399658203125,-0.251708984375
0.282196044921875,-0.25421142578125
0.282943725585938,-0.25653076171875
0.276214599609375,-0.254241943359375
0.273941040039062,-0.256423950195312
0.269699096679688,-0.25311279296875
0.267745971679688,-0.255996704101562
0.265090942382812,-0.256484985351562
0.261978149414062,-0.256362915039062
0.25909423828125,-0.257537841796875
0.256301879882812,-0.25738525390625
0.25201416015625,-0.257308959960938
0.250900268554688,-0.260391235351562
0.244140625,-0.258926391601562
0.243148803710938,-0.259353637695312
0.241546630859375,-0.259811401367188
0.233566284179688,-0.25958251953125
0.234054565429688,-0.261367797851562
0.2318115234375,-0.259719848632812
0.225570678710938,-0.259674072265625
0.223648071289062,-0.25946044921875
0.218765258789062,-0.2568359375
0.2203369140625,-0.257415771484375
0.215988159179688,-0.257293701171875
0.20904541015625,-0.2586669921875
0.2113037109375,-0.257919311523438
0.203948974609375,-0.259994506835938
0.199569702148438,-0.257965087890625
0.196823120117188,-0.257095336914062
0.201705932617188,-0.266616821289062
0.192901611328125,-0.25579833984375
0.18719482421875,-0.2532958984375
0.180816650390625,-0.253738403320312
0.181015014648438,-0.248519897460938
0.176849365234375,-0.247390747070312
0.172828674316406,-0.243186950683594
0.172904968261719,-0.243034362792969
END
