CITIFILE A.01.01
COMMENT Dataset Name: /BFR91/BIAS8V10mA
COMMENT Modified: 14-Nov-94 16:23:31
NAME DATAvsFREQ
COMMENT #MDS DATATYPE SP

COMMENT #MDS VARTABLE FREQUENCIES
VAR FREQ MAG 101

DATA S[1,1] RI
DATA S[2,1] RI
DATA S[1,2] RI
DATA S[2,2] RI

SEG_LIST_BEGIN
SEG 500000000 2000000000 101
SEG_LIST_END

BEGIN
-0.026336669921875,-0.107326507568359
-0.0312957763671875,-0.102954864501953
-0.0308914184570312,-0.0946998596191406
-0.0323524475097656,-0.0896148681640625
-0.0354499816894531,-0.0795516967773438
-0.0365982055664062,-0.0790061950683594
-0.0383262634277344,-0.0709266662597656
-0.0396270751953125,-0.0665817260742188
-0.0396099090576172,-0.0569572448730469
-0.0413227081298828,-0.0542545318603516
-0.0414390563964844,-0.0461902618408203
-0.0412044525146484,-0.0407505035400391
-0.0448417663574219,-0.03912353515625
-0.0432567596435547,-0.0312919616699219
-0.0440559387207031,-0.0267562866210938
-0.0469570159912109,-0.0222034454345703
-0.0426769256591797,-0.0146923065185547
-0.0469551086425781,-0.0117931365966797
-0.0459136962890625,-0.00945281982421875
-0.0460853576660156,-0.00333213806152344
-0.0488147735595703,-0.000501632690429688
-0.0473403930664062,0.003326416015625
-0.0483493804931641,0.00870704650878906
-0.0487060546875,0.0133209228515625
-0.0490303039550781,0.0173358917236328
-0.0494804382324219,0.0180263519287109
-0.0485992431640625,0.0239944458007812
-0.0489521026611328,0.028778076171875
-0.0519809722900391,0.0323238372802734
-0.0505695343017578,0.0380954742431641
-0.0485687255859375,0.0424137115478516
-0.0503273010253906,0.0422248840332031
-0.0484066009521484,0.0478229522705078
-0.0518436431884766,0.051544189453125
-0.0506992340087891,0.0534439086914062
-0.0494880676269531,0.0569801330566406
-0.0511093139648438,0.0578498840332031
-0.0503883361816406,0.0629158020019531
-0.0486297607421875,0.0673484802246094
-0.0512809753417969,0.0711631774902344
-0.0464210510253906,0.075439453125
-0.0492210388183594,0.0760421752929688
-0.0488815307617188,0.0801467895507812
-0.0451431274414062,0.0846328735351562
-0.0457801818847656,0.0856552124023438
-0.0461463928222656,0.0888481140136719
-0.0443229675292969,0.0943641662597656
-0.0471076965332031,0.0953254699707031
-0.0438499450683594,0.0979080200195312
-0.0449485778808594,0.100017547607422
-0.0449447631835938,0.103103637695312
-0.0439796447753906,0.104503631591797
-0.0442962646484375,0.108802795410156
-0.0444259643554688,0.115486145019531
-0.0443763732910156,0.115718841552734
-0.0398674011230469,0.117794036865234
-0.039825439453125,0.120914459228516
-0.0389518737792969,0.124622344970703
-0.0386886596679688,0.124881744384766
-0.0384750366210938,0.131324768066406
-0.0400314331054688,0.131065368652344
-0.0381546020507812,0.136993408203125
-0.0399169921875,0.140228271484375
-0.0361480712890625,0.1429443359375
-0.0383758544921875,0.147674560546875
-0.0373764038085938,0.148063659667969
-0.03369140625,0.150146484375
-0.0361328125,0.155784606933594
-0.0318374633789062,0.155517578125
-0.030303955078125,0.15960693359375
-0.0325851440429688,0.161125183105469
-0.0277175903320312,0.164039611816406
-0.0316009521484375,0.165809631347656
-0.0299072265625,0.171348571777344
-0.0266494750976562,0.1717529296875
-0.0271835327148438,0.176246643066406
-0.0282058715820312,0.178199768066406
-0.0244827270507812,0.179244995117188
-0.0247573852539062,0.18292236328125
-0.0222396850585938,0.184150695800781
-0.0241775512695312,0.186004638671875
-0.0222015380859375,0.189628601074219
-0.020233154296875,0.192481994628906
-0.0200271606445312,0.19390869140625
-0.0201644897460938,0.194023132324219
-0.0229568481445312,0.199714660644531
-0.0207366943359375,0.200981140136719
-0.0183868408203125,0.201728820800781
-0.0210800170898438,0.204307556152344
-0.0186614990234375,0.208419799804688
-0.0196075439453125,0.208137512207031
-0.0213088989257812,0.212890625
-0.0220565795898438,0.2132568359375
-0.0194778442382812,0.226287841796875
-0.02056884765625,0.219589233398438
-0.022491455078125,0.214920043945312
-0.023406982421875,0.216033935546875
-0.0254058837890625,0.221908569335938
-0.0235519409179688,0.220626831054688
-0.025390625,0.223060607910156
-0.0280685424804688,0.222328186035156
END
BEGIN
0.42236328125,5.81591796875
0.511962890625,5.636474609375
0.556640625,5.47705078125
0.6455078125,5.32373046875
0.693115234375,5.205810546875
0.760498046875,5.052978515625
0.796630859375,4.921630859375
0.866455078125,4.81884765625
0.848388671875,4.65966796875
0.90966796875,4.589599609375
0.940673828125,4.44775390625
0.978759765625,4.33642578125
1.035400390625,4.26123046875
1.047119140625,4.153076171875
1.10107421875,4.0400390625
1.103759765625,3.9522705078125
1.1318359375,3.8643798828125
1.1494140625,3.8116455078125
1.1873779296875,3.7239990234375
1.1966552734375,3.63330078125
1.222900390625,3.569580078125
1.2110595703125,3.49609375
1.2493896484375,3.4287109375
1.2586669921875,3.3519287109375
1.279541015625,3.27685546875
1.2877197265625,3.2197265625
1.316162109375,3.16259765625
1.3114013671875,3.0606689453125
1.364013671875,3.038330078125
1.33837890625,2.99365234375
1.343017578125,2.925048828125
1.3675537109375,2.852783203125
1.356689453125,2.790283203125
1.40087890625,2.7740478515625
1.3897705078125,2.697265625
1.4169921875,2.633056640625
1.408203125,2.611328125
1.434814453125,2.5517578125
1.4388427734375,2.5416259765625
1.4521484375,2.4898681640625
1.4583740234375,2.4326171875
1.4556884765625,2.372314453125
1.45654296875,2.3515625
1.4720458984375,2.310791015625
1.486572265625,2.2589111328125
1.4486083984375,2.2213134765625
1.4866943359375,2.178955078125
1.50732421875,2.1451416015625
1.475341796875,2.092529296875
1.4912109375,2.080810546875
1.4547119140625,2.0296630859375
1.5037841796875,2.0247802734375
1.472900390625,1.9725341796875
1.52294921875,1.9454345703125
1.502197265625,1.8905029296875
1.52197265625,1.86419677734375
1.51129150390625,1.85028076171875
1.51739501953125,1.80816650390625
1.50823974609375,1.78131103515625
1.5245361328125,1.75653076171875
1.49163818359375,1.7247314453125
1.5450439453125,1.7138671875
1.52655029296875,1.66448974609375
1.521240234375,1.62701416015625
1.55010986328125,1.61553955078125
1.5517578125,1.57421875
1.53570556640625,1.54754638671875
1.552490234375,1.52386474609375
1.5433349609375,1.496826171875
1.53326416015625,1.4923095703125
1.53472900390625,1.4423828125
1.521240234375,1.42266845703125
1.52996826171875,1.40069580078125
1.54718017578125,1.37762451171875
1.51849365234375,1.33697509765625
1.525634765625,1.33905029296875
1.519775390625,1.30084228515625
1.54205322265625,1.283447265625
1.553955078125,1.2664794921875
1.5350341796875,1.25433349609375
1.5303955078125,1.22991943359375
1.53436279296875,1.19744873046875
1.54595947265625,1.189453125
1.5419921875,1.1925048828125
1.5260009765625,1.14654541015625
1.54608154296875,1.120361328125
1.55731201171875,1.0999755859375
1.54376220703125,1.07037353515625
1.545654296875,1.06683349609375
1.5338134765625,1.0408935546875
1.54345703125,1.02642822265625
1.552001953125,1.00836181640625
1.52325439453125,1.00091552734375
1.53759765625,1.009765625
1.5357666015625,0.95074462890625
1.55169677734375,0.9429931640625
1.53753662109375,0.94000244140625
1.55438232421875,0.9039306640625
1.53631591796875,0.897216796875
1.55230712890625,0.88604736328125
1.532958984375,0.8671875
END
BEGIN
0.024627685546875,0.0665092468261719
0.0250282287597656,0.0682601928710938
0.0267372131347656,0.0692481994628906
0.0261077880859375,0.0718803405761719
0.0273590087890625,0.0734481811523438
0.0276947021484375,0.0754241943359375
0.0288467407226562,0.0764503479003906
0.0295257568359375,0.0788383483886719
0.0317230224609375,0.080902099609375
0.0311698913574219,0.0818367004394531
0.032440185546875,0.0838851928710938
0.0336799621582031,0.0860595703125
0.0342445373535156,0.0881843566894531
0.0345497131347656,0.0885391235351562
0.0363883972167969,0.0908279418945312
0.0363082885742188,0.0913925170898438
0.0375938415527344,0.093658447265625
0.0389938354492188,0.0968666076660156
0.0390892028808594,0.0969314575195312
0.0403404235839844,0.0993843078613281
0.0415725708007812,0.100795745849609
0.0431251525878906,0.10223388671875
0.0442008972167969,0.104595184326172
0.0463294982910156,0.105953216552734
0.0458717346191406,0.108867645263672
0.0468902587890625,0.108955383300781
0.0497322082519531,0.110507965087891
0.0499649047851562,0.112876892089844
0.0508804321289062,0.115062713623047
0.0520248413085938,0.115226745605469
0.0529365539550781,0.120235443115234
0.05377197265625,0.118461608886719
0.0567169189453125,0.119735717773438
0.0571060180664062,0.121509552001953
0.0567550659179688,0.123222351074219
0.0607795715332031,0.124691009521484
0.0603561401367188,0.126731872558594
0.0620803833007812,0.127586364746094
0.0636978149414062,0.128898620605469
0.0646743774414062,0.131034851074219
0.0652389526367188,0.132560729980469
0.0650634765625,0.135116577148438
0.067779541015625,0.134880065917969
0.0699691772460938,0.134727478027344
0.0701980590820312,0.138008117675781
0.070648193359375,0.138168334960938
0.0753936767578125,0.1396484375
0.0748748779296875,0.141204833984375
0.0776824951171875,0.144355773925781
0.0766067504882812,0.145401000976562
0.0789337158203125,0.146202087402344
0.080841064453125,0.146965026855469
0.0823135375976562,0.149711608886719
0.0818862915039062,0.151161193847656
0.0863265991210938,0.149894714355469
0.0872344970703125,0.15179443359375
0.0889892578125,0.154891967773438
0.0888748168945312,0.156303405761719
0.0908660888671875,0.155487060546875
0.0924758911132812,0.159172058105469
0.0928268432617188,0.159530639648438
0.095794677734375,0.161262512207031
0.0983123779296875,0.163475036621094
0.0986862182617188,0.16265869140625
0.102729797363281,0.165435791015625
0.103782653808594,0.166694641113281
0.105728149414062,0.167991638183594
0.107749938964844,0.167922973632812
0.109481811523438,0.169723510742188
0.109939575195312,0.169784545898438
0.113479614257812,0.171104431152344
0.114669799804688,0.173301696777344
0.1153564453125,0.174156188964844
0.116592407226562,0.175079345703125
0.11883544921875,0.177391052246094
0.122123718261719,0.178390502929688
0.122085571289062,0.178192138671875
0.124504089355469,0.180061340332031
0.125083923339844,0.181373596191406
0.128402709960938,0.181037902832031
0.130287170410156,0.182380676269531
0.131904602050781,0.182456970214844
0.13494873046875,0.184516906738281
0.135871887207031,0.185508728027344
0.136726379394531,0.187400817871094
0.139968872070312,0.187454223632812
0.140655517578125,0.188591003417969
0.14404296875,0.19049072265625
0.143943786621094,0.191879272460938
0.146072387695312,0.192558288574219
0.150306701660156,0.194114685058594
0.152389526367188,0.194709777832031
0.152778625488281,0.1964111328125
0.157157897949219,0.197166442871094
0.159095764160156,0.196075439453125
0.160110473632812,0.197967529296875
0.163246154785156,0.199554443359375
0.164863586425781,0.200965881347656
0.166755676269531,0.2020263671875
0.169586181640625,0.203773498535156
0.17120361328125,0.203353881835938
END
BEGIN
0.501861572265625,-0.208648681640625
0.4967041015625,-0.205642700195312
0.496627807617188,-0.207595825195312
0.492904663085938,-0.206802368164062
0.491668701171875,-0.210159301757812
0.486404418945312,-0.20989990234375
0.488296508789062,-0.211181640625
0.482315063476562,-0.208450317382812
0.483901977539062,-0.210723876953125
0.482452392578125,-0.21209716796875
0.478546142578125,-0.211349487304688
0.479385375976562,-0.214874267578125
0.475296020507812,-0.216461181640625
0.47021484375,-0.217361450195312
0.465988159179688,-0.218856811523438
0.466201782226562,-0.216720581054688
0.466033935546875,-0.220687866210938
0.466339111328125,-0.223037719726562
0.461410522460938,-0.220367431640625
0.462005615234375,-0.2259521484375
0.459793090820312,-0.226486206054688
0.461029052734375,-0.226470947265625
0.457611083984375,-0.230972290039062
0.450912475585938,-0.229049682617188
0.449234008789062,-0.232025146484375
0.448410034179688,-0.23309326171875
0.445144653320312,-0.233184814453125
0.442947387695312,-0.234420776367188
0.4405517578125,-0.23974609375
0.437255859375,-0.239105224609375
0.43841552734375,-0.239212036132812
0.43389892578125,-0.24212646484375
0.428939819335938,-0.24200439453125
0.433685302734375,-0.243881225585938
0.430389404296875,-0.241409301757812
0.423828125,-0.249267578125
0.42242431640625,-0.247177124023438
0.417572021484375,-0.253097534179688
0.41912841796875,-0.256378173828125
0.412979125976562,-0.252548217773438
0.413238525390625,-0.255233764648438
0.410934448242188,-0.254241943359375
0.405044555664062,-0.255599975585938
0.408889770507812,-0.2611083984375
0.404815673828125,-0.259323120117188
0.399093627929688,-0.25927734375
0.399993896484375,-0.2635498046875
0.3961181640625,-0.266815185546875
0.391799926757812,-0.2642822265625
0.392364501953125,-0.2684326171875
0.38629150390625,-0.26678466796875
0.384735107421875,-0.271392822265625
0.384536743164062,-0.272247314453125
0.380477905273438,-0.269485473632812
0.375030517578125,-0.273635864257812
0.3739013671875,-0.275299072265625
0.372970581054688,-0.276260375976562
0.368408203125,-0.274810791015625
0.369827270507812,-0.283905029296875
0.364089965820312,-0.279266357421875
0.361160278320312,-0.282928466796875
0.360824584960938,-0.283203125
0.353515625,-0.284225463867188
0.352890014648438,-0.285446166992188
0.352218627929688,-0.286834716796875
0.346832275390625,-0.290496826171875
0.347000122070312,-0.291900634765625
0.342361450195312,-0.28900146484375
0.339859008789062,-0.291717529296875
0.338790893554688,-0.29095458984375
0.332260131835938,-0.291976928710938
0.330352783203125,-0.294830322265625
0.327529907226562,-0.29486083984375
0.324630737304688,-0.294296264648438
0.3216552734375,-0.297119140625
0.320037841796875,-0.299118041992188
0.316543579101562,-0.297897338867188
0.3143310546875,-0.299972534179688
0.307769775390625,-0.301605224609375
0.30914306640625,-0.301254272460938
0.303741455078125,-0.30364990234375
0.296920776367188,-0.302597045898438
0.2979736328125,-0.306121826171875
0.292648315429688,-0.305374145507812
0.28814697265625,-0.301483154296875
0.286239624023438,-0.303451538085938
0.282089233398438,-0.30291748046875
0.28173828125,-0.304977416992188
0.274749755859375,-0.307098388671875
0.273529052734375,-0.306655883789062
0.267135620117188,-0.309066772460938
0.26544189453125,-0.305923461914062
0.261123657226562,-0.305328369140625
0.269210815429688,-0.321975708007812
0.253814697265625,-0.305816650390625
0.251937866210938,-0.306381225585938
0.246231079101562,-0.310638427734375
0.239334106445312,-0.301864624023438
0.239654541015625,-0.303634643554688
0.23480224609375,-0.298431396484375
0.233642578125,-0.300460815429688
END