CITIFILE A.01.01
COMMENT Dataset Name: /BFR91/BIAS10V20mA
COMMENT Modified: 14-Nov-94 16:31:55
NAME DATAvsFREQ
COMMENT #MDS DATATYPE SP

COMMENT #MDS VARTABLE FREQUENCIES
VAR FREQ MAG 101

DATA S[1,1] RI
DATA S[2,1] RI
DATA S[1,2] RI
DATA S[2,2] RI

SEG_LIST_BEGIN
SEG 500000000 2000000000 101
SEG_LIST_END

BEGIN
0.0178699493408203,-0.0538883209228516
0.01470947265625,-0.0505905151367188
0.0139446258544922,-0.0478019714355469
0.0142631530761719,-0.0402927398681641
0.0122356414794922,-0.0358562469482422
0.0118770599365234,-0.0342178344726562
0.011322021484375,-0.0299444198608398
0.00968265533447266,-0.0282707214355469
0.0101566314697266,-0.0233907699584961
0.00746059417724609,-0.0215034484863281
0.00730514526367188,-0.0156774520874023
0.00565767288208008,-0.0142803192138672
0.00688505172729492,-0.010645866394043
0.00541305541992188,-0.00682401657104492
0.00473117828369141,-0.0036165714263916
0.00530385971069336,0.000699520111083984
0.0044703483581543,0.00363016128540039
0.00313282012939453,0.00893306732177734
0.00341033935546875,0.0114197731018066
0.00293064117431641,0.0120911598205566
0.00250387191772461,0.0145549774169922
0.00192928314208984,0.0179233551025391
-5.91278076171875E-05,0.0201730728149414
0.000873565673828125,0.0247526168823242
-0.00224399566650391,0.0265979766845703
-0.000761032104492188,0.0291681289672852
-0.00153541564941406,0.0297021865844727
-0.00103187561035156,0.0334377288818359
-0.00142288208007812,0.0379543304443359
-0.00495338439941406,0.0391197204589844
-0.00443649291992188,0.0450458526611328
-0.00392532348632812,0.0460376739501953
-0.00394630432128906,0.0498847961425781
-0.00476264953613281,0.05084228515625
-0.003936767578125,0.0520553588867188
-0.00500297546386719,0.0539741516113281
-0.00518226623535156,0.0562343597412109
-0.00761222839355469,0.057464599609375
-0.00538253784179688,0.0609207153320312
-0.00687408447265625,0.066436767578125
-0.00754547119140625,0.0682334899902344
-0.005767822265625,0.0671310424804688
-0.00505447387695312,0.0717964172363281
-0.00532913208007812,0.07562255859375
-0.00434112548828125,0.0769119262695312
-0.0070648193359375,0.0801429748535156
-0.00570297241210938,0.0831336975097656
-0.00877761840820312,0.0828742980957031
-0.0071868896484375,0.084564208984375
-0.00619888305664062,0.0871009826660156
-0.00716400146484375,0.0883369445800781
-0.00867462158203125,0.0898056030273438
-0.00793838500976562,0.0907516479492188
-0.00666427612304688,0.0990791320800781
-0.0063018798828125,0.100566864013672
-0.006072998046875,0.102104187011719
-0.00547409057617188,0.104671478271484
-0.00387191772460938,0.107330322265625
-0.00493621826171875,0.107044219970703
-0.0043487548828125,0.110233306884766
-0.00776290893554688,0.110645294189453
-0.00614166259765625,0.116874694824219
-0.00430679321289062,0.120216369628906
-0.00651931762695312,0.122509002685547
-0.006317138671875,0.125358581542969
-0.0049896240234375,0.126640319824219
-0.0047454833984375,0.128623962402344
-0.005523681640625,0.131736755371094
-0.002838134765625,0.1328125
-0.00231170654296875,0.136543273925781
-0.00365447998046875,0.139335632324219
-0.00142669677734375,0.142807006835938
-0.00405120849609375,0.140251159667969
-0.0008087158203125,0.146965026855469
-0.00017547607421875,0.148193359375
-0.0012664794921875,0.151420593261719
-0.00209808349609375,0.154045104980469
-0.000152587890625,0.154617309570312
0.0012054443359375,0.157562255859375
0.00109100341796875,0.160110473632812
-0.00067138671875,0.159431457519531
0.00031280517578125,0.162017822265625
0.0029296875,0.167091369628906
0.00235748291015625,0.166267395019531
0.00252532958984375,0.168632507324219
0,0.173080444335938
0.00081634521484375,0.174476623535156
0.0012359619140625,0.176673889160156
-0.00051116943359375,0.176849365234375
0.0011749267578125,0.179794311523438
-0.0016326904296875,0.181854248046875
-0.002777099609375,0.185104370117188
-0.0030670166015625,0.185150146484375
-0.00186920166015625,0.197120666503906
-0.0052490234375,0.191337585449219
-0.00600433349609375,0.188972473144531
-0.00762176513671875,0.188133239746094
-0.01019287109375,0.191635131835938
-0.00714111328125,0.193107604980469
-0.00995635986328125,0.195068359375
-0.0135879516601562,0.196449279785156
END
BEGIN
0.786376953125,6.24755859375
0.85205078125,6.06591796875
0.90283203125,5.877685546875
0.9755859375,5.70947265625
0.96826171875,5.5625
1.016357421875,5.410400390625
1.068603515625,5.268310546875
1.128173828125,5.1376953125
1.119384765625,4.982666015625
1.17626953125,4.8857421875
1.197509765625,4.770751953125
1.1923828125,4.633056640625
1.244140625,4.521240234375
1.258056640625,4.437744140625
1.302001953125,4.333251953125
1.329345703125,4.2353515625
1.3173828125,4.150390625
1.330810546875,4.0478515625
1.3623046875,3.9671630859375
1.372314453125,3.9112548828125
1.405517578125,3.773681640625
1.4129638671875,3.7288818359375
1.4171142578125,3.655029296875
1.4312744140625,3.5906982421875
1.3896484375,3.503662109375
1.4459228515625,3.400634765625
1.4439697265625,3.356689453125
1.448974609375,3.295654296875
1.4957275390625,3.2684326171875
1.5042724609375,3.1883544921875
1.491943359375,3.1080322265625
1.4981689453125,3.078369140625
1.486572265625,2.951904296875
1.5081787109375,2.958984375
1.5367431640625,2.88623046875
1.53369140625,2.83837890625
1.515380859375,2.7974853515625
1.5457763671875,2.73486328125
1.569580078125,2.6669921875
1.53857421875,2.6710205078125
1.610107421875,2.61279296875
1.55029296875,2.5396728515625
1.5821533203125,2.484375
1.5545654296875,2.4891357421875
1.5872802734375,2.388916015625
1.5648193359375,2.3460693359375
1.6024169921875,2.30859375
1.6029052734375,2.3009033203125
1.581787109375,2.2579345703125
1.56201171875,2.2197265625
1.603271484375,2.18505859375
1.5926513671875,2.12841796875
1.61474609375,2.10986328125
1.598876953125,2.0552978515625
1.5877685546875,2.0416259765625
1.6317138671875,2.0089111328125
1.6041259765625,1.98370361328125
1.59405517578125,1.939453125
1.6292724609375,1.9306640625
1.58990478515625,1.8785400390625
1.59442138671875,1.85809326171875
1.61956787109375,1.82696533203125
1.600830078125,1.77471923828125
1.623291015625,1.7626953125
1.6270751953125,1.7374267578125
1.64013671875,1.70465087890625
1.64697265625,1.6783447265625
1.65057373046875,1.62579345703125
1.61968994140625,1.61138916015625
1.647216796875,1.60357666015625
1.62603759765625,1.56134033203125
1.63330078125,1.5166015625
1.60906982421875,1.510986328125
1.63604736328125,1.48785400390625
1.6192626953125,1.48431396484375
1.61785888671875,1.4427490234375
1.64208984375,1.427001953125
1.63104248046875,1.41668701171875
1.6171875,1.37994384765625
1.6153564453125,1.3360595703125
1.6365966796875,1.338134765625
1.6239013671875,1.3033447265625
1.61138916015625,1.29913330078125
1.63427734375,1.28131103515625
1.5955810546875,1.22998046875
1.65118408203125,1.2371826171875
1.611083984375,1.20263671875
1.62493896484375,1.1885986328125
1.633544921875,1.147216796875
1.6361083984375,1.13037109375
1.6346435546875,1.12567138671875
1.64410400390625,1.1180419921875
1.605712890625,1.11334228515625
1.6387939453125,1.07672119140625
1.6741943359375,1.06927490234375
1.60943603515625,1.03167724609375
1.63189697265625,1.025146484375
1.632568359375,1.007080078125
1.62115478515625,0.97650146484375
1.60235595703125,0.96820068359375
1.63140869140625,0.91705322265625
END
BEGIN
0.0206108093261719,0.0690727233886719
0.0204010009765625,0.0708503723144531
0.0214157104492188,0.0729293823242188
0.0207099914550781,0.0741958618164062
0.0239295959472656,0.076202392578125
0.0239830017089844,0.0787696838378906
0.0260047912597656,0.0809593200683594
0.0270347595214844,0.0816001892089844
0.0263748168945312,0.0844993591308594
0.0282440185546875,0.0847396850585938
0.0279808044433594,0.0872840881347656
0.0293769836425781,0.0896987915039062
0.0308113098144531,0.0912361145019531
0.0310897827148438,0.0921401977539062
0.0328025817871094,0.0942001342773438
0.033294677734375,0.0967025756835938
0.0342216491699219,0.098175048828125
0.0342369079589844,0.0994529724121094
0.0366134643554688,0.102867126464844
0.0376739501953125,0.104045867919922
0.0387840270996094,0.104999542236328
0.0402488708496094,0.108188629150391
0.0405731201171875,0.108871459960938
0.0418014526367188,0.109451293945312
0.043487548828125,0.111919403076172
0.0458297729492188,0.113014221191406
0.0464706420898438,0.115291595458984
0.0479698181152344,0.117767333984375
0.0481643676757812,0.119338989257812
0.0499076843261719,0.120578765869141
0.05169677734375,0.122932434082031
0.0512046813964844,0.124095916748047
0.0541839599609375,0.125648498535156
0.05560302734375,0.127044677734375
0.055816650390625,0.127273559570312
0.0573577880859375,0.129974365234375
0.0584487915039062,0.131118774414062
0.06036376953125,0.132980346679688
0.0611801147460938,0.134849548339844
0.0638046264648438,0.136131286621094
0.0652542114257812,0.138069152832031
0.0674209594726562,0.140907287597656
0.066680908203125,0.140525817871094
0.0691757202148438,0.142204284667969
0.0697555541992188,0.143783569335938
0.0714797973632812,0.144393920898438
0.0730056762695312,0.146965026855469
0.075347900390625,0.1488037109375
0.0765151977539062,0.1495361328125
0.0772705078125,0.150314331054688
0.0799179077148438,0.151214599609375
0.0814132690429688,0.154701232910156
0.0836563110351562,0.156494140625
0.0842971801757812,0.15643310546875
0.0863418579101562,0.157882690429688
0.0882186889648438,0.157264709472656
0.0896072387695312,0.159957885742188
0.091766357421875,0.161026000976562
0.0933456420898438,0.1627197265625
0.0938720703125,0.16461181640625
0.0961380004882812,0.165176391601562
0.098602294921875,0.16650390625
0.09979248046875,0.167861938476562
0.101058959960938,0.169517517089844
0.103500366210938,0.170089721679688
0.104965209960938,0.171768188476562
0.106491088867188,0.173942565917969
0.110443115234375,0.173439025878906
0.110809326171875,0.174781799316406
0.112091064453125,0.17578125
0.115409851074219,0.176528930664062
0.116600036621094,0.178298950195312
0.118759155273438,0.177871704101562
0.120750427246094,0.180694580078125
0.122909545898438,0.182182312011719
0.12420654296875,0.182533264160156
0.126426696777344,0.184562683105469
0.126945495605469,0.184524536132812
0.130615234375,0.1871337890625
0.131561279296875,0.186622619628906
0.134590148925781,0.186744689941406
0.135604858398438,0.189018249511719
0.136825561523438,0.189506530761719
0.139320373535156,0.192276000976562
0.143875122070312,0.190444946289062
0.145179748535156,0.192024230957031
0.146308898925781,0.194732666015625
0.150352478027344,0.194686889648438
0.151336669921875,0.19598388671875
0.152877807617188,0.19647216796875
0.156852722167969,0.196868896484375
0.157707214355469,0.199440002441406
0.159721374511719,0.198814392089844
0.162727355957031,0.200775146484375
0.164939880371094,0.200675964355469
0.165214538574219,0.202384948730469
0.168510437011719,0.20330810546875
0.171760559082031,0.204414367675781
0.171714782714844,0.2039794921875
0.1751708984375,0.206390380859375
0.1785888671875,0.206268310546875
END
BEGIN
0.475143432617188,-0.176788330078125
0.47100830078125,-0.176483154296875
0.472640991210938,-0.174835205078125
0.466567993164062,-0.175674438476562
0.465911865234375,-0.17852783203125
0.464340209960938,-0.181564331054688
0.461624145507812,-0.182083129882812
0.459304809570312,-0.181686401367188
0.46051025390625,-0.18365478515625
0.458541870117188,-0.183624267578125
0.458724975585938,-0.186248779296875
0.453643798828125,-0.186126708984375
0.453598022460938,-0.190597534179688
0.447845458984375,-0.189163208007812
0.44525146484375,-0.192794799804688
0.446426391601562,-0.192276000976562
0.4461669921875,-0.194320678710938
0.444412231445312,-0.196762084960938
0.442352294921875,-0.196029663085938
0.439956665039062,-0.199447631835938
0.439117431640625,-0.201446533203125
0.437255859375,-0.2022705078125
0.436203002929688,-0.206314086914062
0.433486938476562,-0.203384399414062
0.428375244140625,-0.207168579101562
0.426666259765625,-0.2100830078125
0.427566528320312,-0.21112060546875
0.424118041992188,-0.211898803710938
0.420516967773438,-0.215087890625
0.417022705078125,-0.216583251953125
0.415481567382812,-0.215499877929688
0.418136596679688,-0.219802856445312
0.411148071289062,-0.219940185546875
0.4112548828125,-0.219161987304688
0.408493041992188,-0.222259521484375
0.405471801757812,-0.225723266601562
0.406890869140625,-0.2259521484375
0.400527954101562,-0.233123779296875
0.395950317382812,-0.230224609375
0.396682739257812,-0.235076904296875
0.39251708984375,-0.234146118164062
0.389175415039062,-0.23321533203125
0.386398315429688,-0.237930297851562
0.388702392578125,-0.239120483398438
0.3873291015625,-0.23681640625
0.382522583007812,-0.2401123046875
0.380218505859375,-0.242156982421875
0.37847900390625,-0.245941162109375
0.37286376953125,-0.242355346679688
0.372695922851562,-0.246902465820312
0.367889404296875,-0.245819091796875
0.364700317382812,-0.249481201171875
0.3680419921875,-0.251373291015625
0.362930297851562,-0.250656127929688
0.35906982421875,-0.252716064453125
0.355438232421875,-0.25360107421875
0.35443115234375,-0.251419067382812
0.352371215820312,-0.25604248046875
0.353042602539062,-0.257461547851562
0.346847534179688,-0.25823974609375
0.343658447265625,-0.259521484375
0.343215942382812,-0.258804321289062
0.339569091796875,-0.261505126953125
0.333404541015625,-0.261764526367188
0.331100463867188,-0.26495361328125
0.330352783203125,-0.267852783203125
0.327667236328125,-0.26861572265625
0.325347900390625,-0.267837524414062
0.32269287109375,-0.269180297851562
0.318511962890625,-0.265029907226562
0.317550659179688,-0.267791748046875
0.31304931640625,-0.270248413085938
0.309921264648438,-0.269302368164062
0.307449340820312,-0.272140502929688
0.305694580078125,-0.26947021484375
0.303512573242188,-0.274444580078125
0.29962158203125,-0.274673461914062
0.295440673828125,-0.27740478515625
0.294845581054688,-0.278091430664062
0.290451049804688,-0.274520874023438
0.284988403320312,-0.279739379882812
0.2833251953125,-0.275100708007812
0.281723022460938,-0.278793334960938
0.275161743164062,-0.278579711914062
0.276687622070312,-0.275299072265625
0.270782470703125,-0.276962280273438
0.269271850585938,-0.278274536132812
0.265853881835938,-0.2752685546875
0.2613525390625,-0.278701782226562
0.258407592773438,-0.279067993164062
0.2540283203125,-0.280044555664062
0.249725341796875,-0.28009033203125
0.251266479492188,-0.27813720703125
0.254348754882812,-0.293975830078125
0.24267578125,-0.275970458984375
0.23846435546875,-0.278488159179688
0.233200073242188,-0.280853271484375
0.22869873046875,-0.272598266601562
0.227798461914062,-0.274139404296875
0.222000122070312,-0.268051147460938
0.22308349609375,-0.269439697265625
END