CITIFILE A.01.01
COMMENT Dataset Name: /BFR91/BIAS10V30mA
COMMENT Modified: 14-Nov-94 16:33:49
NAME DATAvsFREQ
COMMENT #MDS DATATYPE SP

COMMENT #MDS VARTABLE FREQUENCIES
VAR FREQ MAG 101

DATA S[1,1] RI
DATA S[2,1] RI
DATA S[1,2] RI
DATA S[2,2] RI

SEG_LIST_BEGIN
SEG 500000000 2000000000 101
SEG_LIST_END

BEGIN
0.0254364013671875,-0.0363788604736328
0.0233631134033203,-0.0326023101806641
0.0209617614746094,-0.0288105010986328
0.0231809616088867,-0.022918701171875
0.0203685760498047,-0.0202035903930664
0.0201597213745117,-0.0193195343017578
0.0183200836181641,-0.015751838684082
0.0193424224853516,-0.014369010925293
0.0168981552124023,-0.00982952117919922
0.0165529251098633,-0.00711345672607422
0.0169048309326172,-0.00278759002685547
0.0147871971130371,0.000768661499023438
0.014498233795166,0.00131320953369141
0.0139584541320801,0.00368022918701172
0.0139565467834473,0.00778484344482422
0.0145955085754395,0.0106062889099121
0.013615608215332,0.0132570266723633
0.0111551284790039,0.0174188613891602
0.0112104415893555,0.0190210342407227
0.0106563568115234,0.0213041305541992
0.0106077194213867,0.0230798721313477
0.00911808013916016,0.0257186889648438
0.00843048095703125,0.0272302627563477
0.00712490081787109,0.0304412841796875
0.00554275512695312,0.0354633331298828
0.00746536254882812,0.0352306365966797
0.00730514526367188,0.0364837646484375
0.00407791137695312,0.0388050079345703
0.00558853149414062,0.0420055389404297
0.00329780578613281,0.0453739166259766
0.00395011901855469,0.0490093231201172
0.00367164611816406,0.0505809783935547
0.000627517700195312,0.0542850494384766
0.00074005126953125,0.0569534301757812
0.00227546691894531,0.0562458038330078
0.00262832641601562,0.0585784912109375
0.000738143920898438,0.0594406127929688
0.00051116943359375,0.0626258850097656
0.000347137451171875,0.0655708312988281
-0.000762939453125,0.0677146911621094
0.00093841552734375,0.0721969604492188
0.0001068115234375,0.0703849792480469
-0.000827789306640625,0.0749702453613281
0.0009765625,0.0772972106933594
0.00069427490234375,0.0793571472167969
-3.814697265625E-06,0.0823402404785156
0.00162506103515625,0.085113525390625
-0.001312255859375,0.084136962890625
-0.000225067138671875,0.086639404296875
-0.00115966796875,0.0891914367675781
-0.001800537109375,0.0926628112792969
-0.00325393676757812,0.0924339294433594
-0.00250625610351562,0.0944290161132812
-0.00115203857421875,0.0989646911621094
-0.00180435180664062,0.103172302246094
-0.0011749267578125,0.102802276611328
-0.00054168701171875,0.106979370117188
-0.000690460205078125,0.108188629150391
-0.000797271728515625,0.108829498291016
-0.000774383544921875,0.111965179443359
-0.002838134765625,0.111968994140625
-0.00182723999023438,0.117416381835938
5.340576171875E-05,0.121257781982422
-0.00149917602539062,0.123111724853516
-0.00150299072265625,0.1285400390625
-0.002166748046875,0.126419067382812
0.000274658203125,0.129356384277344
-0.00189208984375,0.132270812988281
0.0011749267578125,0.131507873535156
0.0009765625,0.13714599609375
0.00290679931640625,0.1402587890625
0.0013275146484375,0.14276123046875
0.00052642822265625,0.141860961914062
0.00167083740234375,0.148658752441406
0.002655029296875,0.148284912109375
0.003173828125,0.152374267578125
0.00048065185546875,0.153762817382812
0.00264739990234375,0.153854370117188
0.003814697265625,0.15838623046875
0.004241943359375,0.159408569335938
0.000885009765625,0.160804748535156
0.00347137451171875,0.163375854492188
0.0049591064453125,0.167388916015625
0.00644683837890625,0.1683349609375
0.00484466552734375,0.168205261230469
0.002349853515625,0.172691345214844
0.0038604736328125,0.173477172851562
0.00457763671875,0.176597595214844
0.00131988525390625,0.177947998046875
0.0042266845703125,0.180961608886719
2.288818359375E-05,0.182167053222656
0.0005035400390625,0.185226440429688
-7.62939453125E-05,0.184890747070312
0.0004425048828125,0.197883605957031
-0.0008697509765625,0.192268371582031
-0.00431060791015625,0.188316345214844
-0.00458526611328125,0.190208435058594
-0.0078582763671875,0.194282531738281
-0.00476837158203125,0.194145202636719
-0.0066986083984375,0.19580078125
-0.0121002197265625,0.19635009765625
END
BEGIN
0.9580078125,6.3056640625
1.023681640625,6.113037109375
1.023193359375,5.9306640625
1.11083984375,5.787353515625
1.1357421875,5.6220703125
1.126953125,5.433837890625
1.160888671875,5.31884765625
1.219970703125,5.17333984375
1.236083984375,5.059814453125
1.260498046875,4.941162109375
1.288818359375,4.798828125
1.307861328125,4.669921875
1.31396484375,4.5712890625
1.37841796875,4.460693359375
1.393310546875,4.34912109375
1.404541015625,4.246826171875
1.4013671875,4.18212890625
1.4189453125,4.09814453125
1.4345703125,4.005615234375
1.4552001953125,3.9368896484375
1.4803466796875,3.8323974609375
1.4674072265625,3.7335205078125
1.48779296875,3.6590576171875
1.53076171875,3.6129150390625
1.510498046875,3.49365234375
1.513916015625,3.4141845703125
1.4776611328125,3.3951416015625
1.5472412109375,3.30224609375
1.5615234375,3.2342529296875
1.5511474609375,3.180908203125
1.55517578125,3.1170654296875
1.568359375,3.0692138671875
1.579833984375,3.009765625
1.5614013671875,2.962890625
1.5970458984375,2.927490234375
1.5892333984375,2.8563232421875
1.573974609375,2.814208984375
1.5823974609375,2.7813720703125
1.6202392578125,2.7154541015625
1.61279296875,2.644287109375
1.60302734375,2.6146240234375
1.593994140625,2.542724609375
1.6141357421875,2.5335693359375
1.6297607421875,2.4635009765625
1.5936279296875,2.4251708984375
1.6131591796875,2.380126953125
1.635498046875,2.3157958984375
1.637451171875,2.3150634765625
1.6407470703125,2.2725830078125
1.5997314453125,2.2381591796875
1.6282958984375,2.2030029296875
1.6337890625,2.1690673828125
1.6116943359375,2.12060546875
1.6463623046875,2.0859375
1.6502685546875,2.05908203125
1.6817626953125,2.0362548828125
1.672607421875,1.97882080078125
1.607177734375,1.9598388671875
1.65899658203125,1.90521240234375
1.68359375,1.90777587890625
1.63641357421875,1.86474609375
1.662353515625,1.8245849609375
1.67071533203125,1.74652099609375
1.64434814453125,1.79376220703125
1.6639404296875,1.77294921875
1.6463623046875,1.74700927734375
1.6500244140625,1.671630859375
1.6536865234375,1.65423583984375
1.64886474609375,1.63665771484375
1.66485595703125,1.5902099609375
1.661376953125,1.5491943359375
1.68426513671875,1.552001953125
1.651611328125,1.5081787109375
1.6602783203125,1.49993896484375
1.657470703125,1.4854736328125
1.6796875,1.48956298828125
1.650634765625,1.453369140625
1.62640380859375,1.416259765625
1.69256591796875,1.39508056640625
1.66204833984375,1.37371826171875
1.63970947265625,1.32415771484375
1.66015625,1.3123779296875
1.64642333984375,1.2896728515625
1.6895751953125,1.2374267578125
1.63739013671875,1.26116943359375
1.653076171875,1.21026611328125
1.66558837890625,1.2257080078125
1.63946533203125,1.17596435546875
1.64202880859375,1.16644287109375
1.66064453125,1.148681640625
1.63031005859375,1.12884521484375
1.6192626953125,1.11480712890625
1.63995361328125,1.1187744140625
1.6680908203125,1.07696533203125
1.65594482421875,1.0615234375
1.65582275390625,1.02606201171875
1.64581298828125,1.01708984375
1.6483154296875,1.00439453125
1.630859375,0.99322509765625
1.632080078125,0.9820556640625
1.64068603515625,0.96533203125
END
BEGIN
0.0191612243652344,0.070068359375
0.0190238952636719,0.0716514587402344
0.019683837890625,0.0733451843261719
0.0215034484863281,0.0760955810546875
0.0219650268554688,0.0780296325683594
0.0225296020507812,0.0792961120605469
0.0230865478515625,0.0812530517578125
0.0244178771972656,0.0836334228515625
0.0254249572753906,0.0854110717773438
0.0264511108398438,0.0867347717285156
0.0270881652832031,0.0890159606933594
0.0277442932128906,0.0919227600097656
0.029876708984375,0.0929489135742188
0.0295639038085938,0.0948753356933594
0.0311851501464844,0.0967597961425781
0.0322952270507812,0.0992965698242188
0.0330581665039062,0.100299835205078
0.0343055725097656,0.100772857666016
0.0354652404785156,0.104454040527344
0.0366363525390625,0.106304168701172
0.0384254455566406,0.10833740234375
0.0384521484375,0.109180450439453
0.0400276184082031,0.110569000244141
0.0423583984375,0.114238739013672
0.0436515808105469,0.114151000976562
0.0443534851074219,0.116035461425781
0.04608154296875,0.117488861083984
0.0463829040527344,0.120449066162109
0.0468292236328125,0.122440338134766
0.0507545471191406,0.122707366943359
0.0497627258300781,0.124851226806641
0.0514450073242188,0.126449584960938
0.053253173828125,0.128158569335938
0.0554351806640625,0.130500793457031
0.0567169189453125,0.130897521972656
0.0574188232421875,0.132942199707031
0.0593185424804688,0.135581970214844
0.0598983764648438,0.13653564453125
0.0601654052734375,0.1365966796875
0.0632095336914062,0.139472961425781
0.0657501220703125,0.142410278320312
0.0664215087890625,0.143402099609375
0.0678634643554688,0.143745422363281
0.0693206787109375,0.144844055175781
0.0698699951171875,0.147315979003906
0.0735549926757812,0.147430419921875
0.0736160278320312,0.149528503417969
0.0766372680664062,0.150444030761719
0.0784378051757812,0.152366638183594
0.0779190063476562,0.15399169921875
0.08099365234375,0.15570068359375
0.08251953125,0.156623840332031
0.083587646484375,0.159347534179688
0.085723876953125,0.158950805664062
0.0870208740234375,0.161293029785156
0.088897705078125,0.162132263183594
0.090545654296875,0.16204833984375
0.0909194946289062,0.164993286132812
0.0937271118164062,0.166397094726562
0.095001220703125,0.167060852050781
0.097869873046875,0.16754150390625
0.099700927734375,0.169898986816406
0.101692199707031,0.170768737792969
0.103164672851562,0.171592712402344
0.106292724609375,0.174285888671875
0.107490539550781,0.174552917480469
0.110893249511719,0.176719665527344
0.1119384765625,0.177337646484375
0.112686157226562,0.178367614746094
0.115028381347656,0.179168701171875
0.1160888671875,0.179130554199219
0.118934631347656,0.181983947753906
0.121109008789062,0.181617736816406
0.122268676757812,0.182594299316406
0.124755859375,0.184188842773438
0.126708984375,0.186164855957031
0.1287841796875,0.186790466308594
0.129562377929688,0.186370849609375
0.131965637207031,0.188072204589844
0.135475158691406,0.189949035644531
0.136573791503906,0.189842224121094
0.138160705566406,0.191581726074219
0.141136169433594,0.192840576171875
0.142181396484375,0.193778991699219
0.143394470214844,0.194564819335938
0.148773193359375,0.194770812988281
0.148567199707031,0.196418762207031
0.152351379394531,0.197509765625
0.152976989746094,0.198379516601562
0.154129028320312,0.1982421875
0.158348083496094,0.200828552246094
0.161544799804688,0.200469970703125
0.162651062011719,0.202140808105469
0.166740417480469,0.20318603515625
0.168205261230469,0.203300476074219
0.169387817382812,0.205970764160156
0.171501159667969,0.204635620117188
0.174789428710938,0.205825805664062
0.177757263183594,0.206436157226562
0.180335998535156,0.208633422851562
0.182106018066406,0.209068298339844
END
BEGIN
0.461959838867188,-0.163558959960938
0.460037231445312,-0.163040161132812
0.45977783203125,-0.163421630859375
0.456344604492188,-0.166946411132812
0.454513549804688,-0.16632080078125
0.453659057617188,-0.171188354492188
0.452484130859375,-0.172042846679688
0.449981689453125,-0.172088623046875
0.450592041015625,-0.173202514648438
0.44891357421875,-0.175064086914062
0.4483642578125,-0.17645263671875
0.444061279296875,-0.17584228515625
0.442184448242188,-0.183395385742188
0.438461303710938,-0.1800537109375
0.436553955078125,-0.182830810546875
0.433242797851562,-0.181472778320312
0.433670043945312,-0.185134887695312
0.434600830078125,-0.189208984375
0.431427001953125,-0.187057495117188
0.429443359375,-0.192031860351562
0.4288330078125,-0.19451904296875
0.430343627929688,-0.193267822265625
0.423980712890625,-0.197616577148438
0.421981811523438,-0.197296142578125
0.419219970703125,-0.204986572265625
0.420547485351562,-0.201446533203125
0.412979125976562,-0.203079223632812
0.412063598632812,-0.204086303710938
0.410858154296875,-0.2071533203125
0.406295776367188,-0.208343505859375
0.404205322265625,-0.210159301757812
0.403976440429688,-0.21514892578125
0.402114868164062,-0.212158203125
0.397628784179688,-0.214553833007812
0.400283813476562,-0.213821411132812
0.396453857421875,-0.218063354492188
0.395462036132812,-0.218093872070312
0.390670776367188,-0.223114013671875
0.388198852539062,-0.222946166992188
0.384048461914062,-0.225921630859375
0.380142211914062,-0.226287841796875
0.38067626953125,-0.228439331054688
0.377471923828125,-0.23028564453125
0.3785400390625,-0.230850219726562
0.377655029296875,-0.229415893554688
0.3721923828125,-0.23138427734375
0.367568969726562,-0.234512329101562
0.365768432617188,-0.238677978515625
0.363418579101562,-0.235977172851562
0.359970092773438,-0.237518310546875
0.357315063476562,-0.239791870117188
0.354629516601562,-0.240127563476562
0.357574462890625,-0.244674682617188
0.350601196289062,-0.240219116210938
0.349838256835938,-0.244277954101562
0.344146728515625,-0.246124267578125
0.341781616210938,-0.245285034179688
0.343368530273438,-0.246414184570312
0.342437744140625,-0.250885009765625
0.339767456054688,-0.251296997070312
0.334716796875,-0.252593994140625
0.329864501953125,-0.253341674804688
0.3311767578125,-0.253402709960938
0.32586669921875,-0.252761840820312
0.3226318359375,-0.257247924804688
0.321914672851562,-0.260421752929688
0.316619873046875,-0.259307861328125
0.314422607421875,-0.259201049804688
0.312942504882812,-0.263107299804688
0.307403564453125,-0.258575439453125
0.307708740234375,-0.259231567382812
0.30078125,-0.2625732421875
0.2989501953125,-0.261383056640625
0.294754028320312,-0.260665893554688
0.29400634765625,-0.2635498046875
0.29119873046875,-0.264007568359375
0.290603637695312,-0.267623901367188
0.283737182617188,-0.2647705078125
0.2835693359375,-0.268035888671875
0.278045654296875,-0.267562866210938
0.272796630859375,-0.2681884765625
0.2755126953125,-0.268630981445312
0.267822265625,-0.267990112304688
0.264175415039062,-0.267578125
0.263671875,-0.269210815429688
0.26025390625,-0.267059326171875
0.259414672851562,-0.2647705078125
0.25543212890625,-0.267654418945312
0.247314453125,-0.268051147460938
0.249481201171875,-0.26947021484375
0.243026733398438,-0.268630981445312
0.242507934570312,-0.269210815429688
0.238128662109375,-0.268798828125
0.24456787109375,-0.281265258789062
0.2320556640625,-0.267730712890625
0.228775024414062,-0.266754150390625
0.2232666015625,-0.266189575195312
0.219070434570312,-0.264144897460938
0.218231201171875,-0.261917114257812
0.216354370117188,-0.256637573242188
0.21466064453125,-0.260345458984375
END