CITIFILE A.01.01
COMMENT Dataset Name: /BFR91/BIAS10V5mA
COMMENT Modified: 14-Nov-94 16:28:53
NAME DATAvsFREQ
COMMENT #MDS DATATYPE SP

COMMENT #MDS VARTABLE FREQUENCIES
VAR FREQ MAG 101

DATA S[1,1] RI
DATA S[2,1] RI
DATA S[1,2] RI
DATA S[2,2] RI

SEG_LIST_BEGIN
SEG 500000000 2000000000 101
SEG_LIST_END

BEGIN
-0.0545120239257812,-0.228179931640625
-0.0593032836914062,-0.21429443359375
-0.0653610229492188,-0.207733154296875
-0.0662689208984375,-0.192184448242188
-0.0754165649414062,-0.184379577636719
-0.07513427734375,-0.172752380371094
-0.0802841186523438,-0.16656494140625
-0.0823974609375,-0.157051086425781
-0.0904312133789062,-0.155647277832031
-0.0866012573242188,-0.136833190917969
-0.092559814453125,-0.13134765625
-0.0960884094238281,-0.123706817626953
-0.0936393737792969,-0.110004425048828
-0.102226257324219,-0.110149383544922
-0.0957794189453125,-0.0963287353515625
-0.100238800048828,-0.091094970703125
-0.106475830078125,-0.088134765625
-0.100021362304688,-0.071929931640625
-0.106559753417969,-0.0713462829589844
-0.105575561523438,-0.0621337890625
-0.101474761962891,-0.0537300109863281
-0.111549377441406,-0.0535659790039062
-0.103870391845703,-0.0410232543945312
-0.108043670654297,-0.0345535278320312
-0.112873077392578,-0.0324249267578125
-0.106010437011719,-0.0230484008789062
-0.113994598388672,-0.0205802917480469
-0.108890533447266,-0.0110969543457031
-0.109107971191406,-0.0039825439453125
-0.117885589599609,-0.00344467163085938
-0.107093811035156,0.00893402099609375
-0.111232757568359,0.0107154846191406
-0.114227294921875,0.0172500610351562
-0.104602813720703,0.0244483947753906
-0.115856170654297,0.0245628356933594
-0.110000610351562,0.0320167541503906
-0.106613159179688,0.03704833984375
-0.115894317626953,0.0386581420898438
-0.104335784912109,0.0482711791992188
-0.110378265380859,0.0543136596679688
-0.110092163085938,0.0566749572753906
-0.102668762207031,0.0607490539550781
-0.109474182128906,0.0649909973144531
-0.103729248046875,0.0723724365234375
-0.100925445556641,0.075531005859375
-0.109531402587891,0.0801277160644531
-0.0971527099609375,0.08551025390625
-0.106121063232422,0.0875205993652344
-0.106121063232422,0.0917778015136719
-0.0968132019042969,0.0939216613769531
-0.107028961181641,0.0996894836425781
-0.0996360778808594,0.101985931396484
-0.0969772338867188,0.104934692382812
-0.101970672607422,0.11273193359375
-0.0925407409667969,0.117057800292969
-0.0952720642089844,0.120136260986328
-0.0964927673339844,0.12457275390625
-0.0878524780273438,0.126625061035156
-0.0951385498046875,0.131439208984375
-0.0884628295898438,0.135299682617188
-0.085601806640625,0.1357421875
-0.0928726196289062,0.1455078125
-0.0821380615234375,0.146492004394531
-0.0885238647460938,0.151603698730469
-0.0871963500976562,0.158294677734375
-0.0810775756835938,0.156562805175781
-0.0833740234375,0.163581848144531
-0.0793991088867188,0.16448974609375
-0.07470703125,0.16741943359375
-0.080413818359375,0.175117492675781
-0.072906494140625,0.177810668945312
-0.0739898681640625,0.180641174316406
-0.07379150390625,0.181106567382812
-0.067779541015625,0.186492919921875
-0.07159423828125,0.191566467285156
-0.0665969848632812,0.191612243652344
-0.0673828125,0.198455810546875
-0.067169189453125,0.201416015625
-0.0605010986328125,0.200653076171875
-0.0614700317382812,0.206657409667969
-0.0610733032226562,0.207420349121094
-0.054962158203125,0.208793640136719
-0.059722900390625,0.218223571777344
-0.0523605346679688,0.216300964355469
-0.0534896850585938,0.22003173828125
-0.0577926635742188,0.22491455078125
-0.0496978759765625,0.221687316894531
-0.0548477172851562,0.229217529296875
-0.0515823364257812,0.227569580078125
-0.046234130859375,0.230804443359375
-0.0527420043945312,0.236930847167969
-0.0490951538085938,0.235336303710938
-0.05035400390625,0.23974609375
-0.05133056640625,0.256317138671875
-0.04608154296875,0.242523193359375
-0.0512008666992188,0.245132446289062
-0.0467529296875,0.241195678710938
-0.0514984130859375,0.246131896972656
-0.0495529174804688,0.248626708984375
-0.0477142333984375,0.246269226074219
-0.053619384765625,0.253021240234375
END
BEGIN
-0.161865234375,5.017578125
-0.026123046875,4.943603515625
0.0068359375,4.7734375
0.138427734375,4.699462890625
0.17236328125,4.5517578125
0.2978515625,4.485107421875
0.31591796875,4.3408203125
0.4189453125,4.297119140625
0.45751953125,4.1689453125
0.486572265625,4.059326171875
0.583740234375,4.025146484375
0.595458984375,3.8768310546875
0.658447265625,3.8316650390625
0.709228515625,3.757568359375
0.7257080078125,3.620849609375
0.7918701171875,3.6011962890625
0.793701171875,3.497802734375
0.8304443359375,3.409912109375
0.866943359375,3.3968505859375
0.8885498046875,3.27490234375
0.92529296875,3.2257080078125
0.952392578125,3.1998291015625
0.9510498046875,3.072998046875
0.99658203125,3.0667724609375
1.01416015625,2.98486328125
1.015380859375,2.9063720703125
1.058349609375,2.90771484375
1.0509033203125,2.7882080078125
1.087646484375,2.7716064453125
1.12451171875,2.7042236328125
1.1278076171875,2.6181640625
1.1671142578125,2.6417236328125
1.156494140625,2.553466796875
1.1446533203125,2.515380859375
1.1954345703125,2.483154296875
1.179931640625,2.3741455078125
1.2061767578125,2.3646240234375
1.228515625,2.35400390625
1.225341796875,2.2869873046875
1.25390625,2.2628173828125
1.2391357421875,2.19677734375
1.2415771484375,2.14599609375
1.2781982421875,2.1517333984375
1.270263671875,2.090087890625
1.2718505859375,2.056640625
1.30029296875,2.042724609375
1.27508544921875,1.97418212890625
1.3250732421875,1.96875
1.29730224609375,1.90509033203125
1.29949951171875,1.881103515625
1.327392578125,1.8782958984375
1.32440185546875,1.83087158203125
1.32916259765625,1.803466796875
1.3433837890625,1.7581787109375
1.3377685546875,1.7296142578125
1.3770751953125,1.71710205078125
1.33160400390625,1.674072265625
1.3343505859375,1.6527099609375
1.37109375,1.60589599609375
1.356201171875,1.58197021484375
1.3511962890625,1.56524658203125
1.36212158203125,1.547119140625
1.35150146484375,1.48858642578125
1.38421630859375,1.49957275390625
1.37445068359375,1.46246337890625
1.3846435546875,1.43829345703125
1.39111328125,1.4156494140625
1.36474609375,1.37152099609375
1.3861083984375,1.37060546875
1.3731689453125,1.33282470703125
1.371337890625,1.3028564453125
1.39111328125,1.29779052734375
1.381591796875,1.26416015625
1.378662109375,1.2535400390625
1.3896484375,1.23687744140625
1.36944580078125,1.1982421875
1.39202880859375,1.18328857421875
1.38995361328125,1.16290283203125
1.3739013671875,1.1300048828125
1.402587890625,1.14532470703125
1.38623046875,1.087890625
1.40594482421875,1.0867919921875
1.4114990234375,1.05987548828125
1.3658447265625,1.0386962890625
1.393798828125,1.04278564453125
1.38201904296875,1.0086669921875
1.38092041015625,0.98065185546875
1.40716552734375,0.9866943359375
1.39093017578125,0.95599365234375
1.40655517578125,0.94244384765625
1.399658203125,0.91473388671875
1.38494873046875,0.9010009765625
1.40850830078125,0.900390625
1.38885498046875,0.8751220703125
1.4134521484375,0.86712646484375
1.40130615234375,0.85906982421875
1.392333984375,0.81488037109375
1.40087890625,0.8233642578125
1.383056640625,0.79644775390625
1.4111328125,0.7965087890625
1.40643310546875,0.7720947265625
END
BEGIN
0.0333633422851562,0.0615520477294922
0.0342674255371094,0.064453125
0.03509521484375,0.0654678344726562
0.0336151123046875,0.0662193298339844
0.0371360778808594,0.0670967102050781
0.0350685119628906,0.0691795349121094
0.0381050109863281,0.0694961547851562
0.0368843078613281,0.0718116760253906
0.0380935668945312,0.0730056762695312
0.0397987365722656,0.0732917785644531
0.0397682189941406,0.0772056579589844
0.0409049987792969,0.078033447265625
0.0410995483398438,0.0793228149414062
0.0401954650878906,0.0805625915527344
0.0435409545898438,0.0817298889160156
0.041778564453125,0.083404541015625
0.0436973571777344,0.0841941833496094
0.045166015625,0.0858535766601562
0.0440597534179688,0.0875015258789062
0.0461616516113281,0.0879669189453125
0.04608154296875,0.0901756286621094
0.0470962524414062,0.0930404663085938
0.0485763549804688,0.0916061401367188
0.049468994140625,0.0943527221679688
0.0503921508789062,0.0956268310546875
0.0506248474121094,0.095855712890625
0.0506820678710938,0.0988235473632812
0.0527992248535156,0.0988998413085938
0.0526695251464844,0.101119995117188
0.054473876953125,0.102985382080078
0.0559577941894531,0.103481292724609
0.0563888549804688,0.107616424560547
0.0579757690429688,0.106376647949219
0.0569992065429688,0.108039855957031
0.0588493347167969,0.110004425048828
0.0602645874023438,0.109745025634766
0.0604171752929688,0.112754821777344
0.063232421875,0.114711761474609
0.0628776550292969,0.116058349609375
0.0645370483398438,0.1165771484375
0.0655937194824219,0.117282867431641
0.0646209716796875,0.118492126464844
0.0653266906738281,0.11920166015625
0.0667457580566406,0.121841430664062
0.0662574768066406,0.124244689941406
0.0679473876953125,0.123970031738281
0.0705795288085938,0.125274658203125
0.0722885131835938,0.12786865234375
0.0740814208984375,0.12744140625
0.0727615356445312,0.130462646484375
0.0743637084960938,0.131912231445312
0.0772323608398438,0.132568359375
0.0781326293945312,0.135459899902344
0.0782699584960938,0.136787414550781
0.0795440673828125,0.1356201171875
0.0804824829101562,0.137474060058594
0.0826873779296875,0.137947082519531
0.082763671875,0.141105651855469
0.0842742919921875,0.141578674316406
0.0843734741210938,0.139663696289062
0.0867233276367188,0.144622802734375
0.0887527465820312,0.14532470703125
0.09051513671875,0.1474609375
0.0908660888671875,0.149864196777344
0.092071533203125,0.148536682128906
0.0952682495117188,0.151847839355469
0.0957107543945312,0.1527099609375
0.097564697265625,0.150543212890625
0.0979080200195312,0.154708862304688
0.0988693237304688,0.154365539550781
0.101089477539062,0.154991149902344
0.102897644042969,0.15966796875
0.101860046386719,0.157814025878906
0.106376647949219,0.161247253417969
0.1064453125,0.161270141601562
0.105796813964844,0.162506103515625
0.110244750976562,0.165794372558594
0.11053466796875,0.165054321289062
0.111465454101562,0.166000366210938
0.114151000976562,0.168548583984375
0.11492919921875,0.167007446289062
0.115913391113281,0.172271728515625
0.118095397949219,0.172203063964844
0.119110107421875,0.1717529296875
0.121841430664062,0.17431640625
0.122474670410156,0.174705505371094
0.124107360839844,0.176139831542969
0.127105712890625,0.178169250488281
0.128349304199219,0.179008483886719
0.1295166015625,0.180458068847656
0.13311767578125,0.18212890625
0.132492065429688,0.183036804199219
0.136802673339844,0.184989929199219
0.134681701660156,0.185737609863281
0.1396484375,0.187637329101562
0.141242980957031,0.188194274902344
0.142257690429688,0.189559936523438
0.146438598632812,0.192123413085938
0.144309997558594,0.191871643066406
0.149063110351562,0.193588256835938
0.152153015136719,0.195022583007812
END
BEGIN
0.566497802734375,-0.247955322265625
0.571258544921875,-0.251312255859375
0.563690185546875,-0.24298095703125
0.565338134765625,-0.25
0.5548095703125,-0.2471923828125
0.55828857421875,-0.250885009765625
0.547393798828125,-0.246124267578125
0.553131103515625,-0.251495361328125
0.545501708984375,-0.24554443359375
0.543914794921875,-0.250244140625
0.546630859375,-0.253570556640625
0.5362548828125,-0.248565673828125
0.538360595703125,-0.253570556640625
0.53094482421875,-0.25164794921875
0.52398681640625,-0.253387451171875
0.52874755859375,-0.256744384765625
0.522705078125,-0.253265380859375
0.5245361328125,-0.2559814453125
0.522857666015625,-0.257293701171875
0.516754150390625,-0.259246826171875
0.520660400390625,-0.26422119140625
0.517669677734375,-0.261474609375
0.513946533203125,-0.26605224609375
0.514739990234375,-0.264678955078125
0.50732421875,-0.264373779296875
0.50567626953125,-0.270263671875
0.500640869140625,-0.266510009765625
0.4962158203125,-0.269760131835938
0.501739501953125,-0.2740478515625
0.493331909179688,-0.272079467773438
0.493515014648438,-0.275192260742188
0.492141723632812,-0.280303955078125
0.482803344726562,-0.27490234375
0.490036010742188,-0.28045654296875
0.485366821289062,-0.280410766601562
0.481109619140625,-0.283477783203125
0.484115600585938,-0.287643432617188
0.473953247070312,-0.286880493164062
0.472930908203125,-0.288787841796875
0.473785400390625,-0.291656494140625
0.465805053710938,-0.2901611328125
0.467025756835938,-0.292861938476562
0.461318969726562,-0.294876098632812
0.459823608398438,-0.2943115234375
0.46466064453125,-0.299118041992188
0.454559326171875,-0.295654296875
0.454269409179688,-0.302261352539062
0.45458984375,-0.301498413085938
0.447021484375,-0.3001708984375
0.449798583984375,-0.3074951171875
0.442520141601562,-0.305068969726562
0.4404296875,-0.30828857421875
0.443771362304688,-0.315093994140625
0.4327392578125,-0.308135986328125
0.4326171875,-0.312713623046875
0.429092407226562,-0.31451416015625
0.425201416015625,-0.31158447265625
0.427291870117188,-0.321426391601562
0.424942016601562,-0.319366455078125
0.422714233398438,-0.319412231445312
0.421005249023438,-0.324493408203125
0.410751342773438,-0.318756103515625
0.411209106445312,-0.325119018554688
0.410858154296875,-0.327804565429688
0.404708862304688,-0.324981689453125
0.406661987304688,-0.336563110351562
0.40301513671875,-0.3343505859375
0.395111083984375,-0.327743530273438
0.400177001953125,-0.340896606445312
0.389190673828125,-0.331939697265625
0.389999389648438,-0.338516235351562
0.38671875,-0.343902587890625
0.379150390625,-0.336746215820312
0.381561279296875,-0.344085693359375
0.378677368164062,-0.343612670898438
0.37371826171875,-0.344070434570312
0.375152587890625,-0.35076904296875
0.36370849609375,-0.343963623046875
0.365890502929688,-0.352310180664062
0.361358642578125,-0.350006103515625
0.35321044921875,-0.35040283203125
0.355926513671875,-0.356643676757812
0.349258422851562,-0.354263305664062
0.345703125,-0.354949951171875
0.346450805664062,-0.35809326171875
0.336685180664062,-0.35430908203125
0.338333129882812,-0.360061645507812
0.329986572265625,-0.35968017578125
0.325958251953125,-0.359664916992188
0.327011108398438,-0.365158081054688
0.320098876953125,-0.361846923828125
0.317062377929688,-0.36505126953125
0.315567016601562,-0.368927001953125
0.320419311523438,-0.381668090820312
0.305953979492188,-0.371170043945312
0.297393798828125,-0.363632202148438
0.293136596679688,-0.371322631835938
0.290008544921875,-0.3699951171875
0.28302001953125,-0.360870361328125
0.282974243164062,-0.36669921875
0.276718139648438,-0.363189697265625
END