CITIFILE A.01.01
COMMENT Dataset Name: /BFR91/BIAS5V10mA
COMMENT Modified: 14-Nov-94 16:14:49
NAME DATAvsFREQ
COMMENT #MDS DATATYPE SP

COMMENT #MDS VARTABLE FREQUENCIES
VAR FREQ MAG 101

DATA S[1,1] RI
DATA S[2,1] RI
DATA S[1,2] RI
DATA S[2,2] RI

SEG_LIST_BEGIN
SEG 500000000 2000000000 101
SEG_LIST_END

BEGIN
-0.0535163879394531,-0.097442626953125
-0.0556411743164062,-0.0894775390625
-0.0601882934570312,-0.0860099792480469
-0.0583076477050781,-0.0746345520019531
-0.0623054504394531,-0.0686378479003906
-0.0601463317871094,-0.0619735717773438
-0.0645370483398438,-0.0592803955078125
-0.0632972717285156,-0.0509681701660156
-0.0632057189941406,-0.043914794921875
-0.0668525695800781,-0.0417327880859375
-0.0629692077636719,-0.0308036804199219
-0.0674858093261719,-0.0275382995605469
-0.068267822265625,-0.0246849060058594
-0.0679168701171875,-0.0162162780761719
-0.0696220397949219,-0.013092041015625
-0.0676803588867188,-0.00716781616210938
-0.0684700012207031,-0.00092315673828125
-0.0711593627929688,0.00360870361328125
-0.0681114196777344,0.00909423828125
-0.0705986022949219,0.0115776062011719
-0.0706520080566406,0.0153236389160156
-0.0696601867675781,0.0218887329101562
-0.0718536376953125,0.0220832824707031
-0.0695686340332031,0.0289459228515625
-0.0702667236328125,0.0334587097167969
-0.0721778869628906,0.0363922119140625
-0.0707817077636719,0.0414505004882812
-0.0720939636230469,0.0434303283691406
-0.0715599060058594,0.04931640625
-0.0717201232910156,0.0534858703613281
-0.0701789855957031,0.05828857421875
-0.0706520080566406,0.0623970031738281
-0.0704345703125,0.0663528442382812
-0.0698814392089844,0.0686988830566406
-0.067962646484375,0.0712623596191406
-0.0690460205078125,0.0747566223144531
-0.0689468383789062,0.0778007507324219
-0.0682754516601562,0.0827064514160156
-0.0692596435546875,0.0871353149414062
-0.06646728515625,0.0904579162597656
-0.067230224609375,0.0943069458007812
-0.067779541015625,0.0934104919433594
-0.0643272399902344,0.0984535217285156
-0.0646286010742188,0.104557037353516
-0.0635643005371094,0.106643676757812
-0.0625,0.109893798828125
-0.0638923645019531,0.115009307861328
-0.0631561279296875,0.115550994873047
-0.0599937438964844,0.118267059326172
-0.0638236999511719,0.12127685546875
-0.0596237182617188,0.124301910400391
-0.065093994140625,0.127403259277344
-0.0584182739257812,0.128059387207031
-0.0588760375976562,0.136016845703125
-0.0597686767578125,0.138206481933594
-0.056396484375,0.139945983886719
-0.055328369140625,0.142333984375
-0.0541152954101562,0.145393371582031
-0.0539321899414062,0.148269653320312
-0.05322265625,0.152587890625
-0.0561447143554688,0.153099060058594
-0.0523223876953125,0.157279968261719
-0.0515289306640625,0.163948059082031
-0.0503768920898438,0.1644287109375
-0.0495223999023438,0.169143676757812
-0.0509719848632812,0.171836853027344
-0.0463638305664062,0.171829223632812
-0.04779052734375,0.177719116210938
-0.04547119140625,0.17822265625
-0.0428695678710938,0.182792663574219
-0.0448760986328125,0.186851501464844
-0.0413894653320312,0.188446044921875
-0.0416488647460938,0.187606811523438
-0.0417938232421875,0.194915771484375
-0.0385360717773438,0.19378662109375
-0.0382919311523438,0.199508666992188
-0.03912353515625,0.200897216796875
-0.0349655151367188,0.203102111816406
-0.0337905883789062,0.205970764160156
-0.032196044921875,0.206581115722656
-0.0356979370117188,0.209259033203125
-0.0324859619140625,0.213188171386719
-0.0306930541992188,0.216865539550781
-0.0301589965820312,0.218673706054688
-0.02899169921875,0.218704223632812
-0.0299072265625,0.222648620605469
-0.0292282104492188,0.226509094238281
-0.0291519165039062,0.228836059570312
-0.0308609008789062,0.228408813476562
-0.0274734497070312,0.23345947265625
-0.0280990600585938,0.23260498046875
-0.02923583984375,0.236854553222656
-0.0317535400390625,0.237831115722656
-0.027252197265625,0.25177001953125
-0.0285110473632812,0.24407958984375
-0.0298843383789062,0.241607666015625
-0.0315322875976562,0.241073608398438
-0.0337600708007812,0.24517822265625
-0.0287933349609375,0.244216918945312
-0.0317611694335938,0.24951171875
-0.03582763671875,0.247428894042969
END
BEGIN
0.493408203125,5.67431640625
0.5595703125,5.47265625
0.6298828125,5.357421875
0.681640625,5.173828125
0.759033203125,5.082763671875
0.804931640625,4.880859375
0.845947265625,4.803466796875
0.88525390625,4.667724609375
0.9267578125,4.557861328125
0.959716796875,4.45654296875
0.997802734375,4.3330078125
1.01123046875,4.23974609375
1.050537109375,4.125244140625
1.07373046875,4.0205078125
1.1439208984375,3.929443359375
1.137451171875,3.848876953125
1.1513671875,3.7650146484375
1.176025390625,3.691650390625
1.1822509765625,3.6153564453125
1.2486572265625,3.53759765625
1.2349853515625,3.46240234375
1.2576904296875,3.3909912109375
1.2816162109375,3.3211669921875
1.2830810546875,3.22998046875
1.2972412109375,3.1787109375
1.307373046875,3.100341796875
1.2977294921875,3.0233154296875
1.3441162109375,3.0050048828125
1.3619384765625,2.9412841796875
1.3701171875,2.8929443359375
1.3656005859375,2.832275390625
1.3753662109375,2.75927734375
1.388671875,2.70703125
1.3790283203125,2.651123046875
1.41796875,2.607177734375
1.4091796875,2.542724609375
1.4278564453125,2.5203857421875
1.4532470703125,2.467041015625
1.431396484375,2.4114990234375
1.4417724609375,2.3826904296875
1.462890625,2.366455078125
1.4810791015625,2.3099365234375
1.4625244140625,2.257080078125
1.4710693359375,2.226318359375
1.467041015625,2.1868896484375
1.4603271484375,2.1585693359375
1.48095703125,2.088623046875
1.498291015625,2.0648193359375
1.500732421875,2.01416015625
1.4840087890625,2.0133056640625
1.4910888671875,1.951904296875
1.49310302734375,1.92987060546875
1.494140625,1.90936279296875
1.508544921875,1.84014892578125
1.5013427734375,1.83367919921875
1.53521728515625,1.79644775390625
1.5098876953125,1.77752685546875
1.51177978515625,1.75341796875
1.51776123046875,1.70355224609375
1.5343017578125,1.6998291015625
1.5159912109375,1.65399169921875
1.4967041015625,1.63043212890625
1.518798828125,1.5867919921875
1.5150146484375,1.58209228515625
1.541015625,1.534912109375
1.53485107421875,1.52410888671875
1.52880859375,1.5081787109375
1.54559326171875,1.4639892578125
1.53009033203125,1.4322509765625
1.53521728515625,1.43927001953125
1.53863525390625,1.37762451171875
1.5235595703125,1.34600830078125
1.533935546875,1.32379150390625
1.521484375,1.32379150390625
1.51776123046875,1.30078125
1.5418701171875,1.27105712890625
1.50372314453125,1.245361328125
1.52362060546875,1.22174072265625
1.5523681640625,1.19476318359375
1.53118896484375,1.16851806640625
1.519775390625,1.15716552734375
1.530029296875,1.1312255859375
1.52490234375,1.12939453125
1.5377197265625,1.10382080078125
1.5377197265625,1.0740966796875
1.54193115234375,1.055419921875
1.52740478515625,1.0361328125
1.52545166015625,1.0321044921875
1.51470947265625,1.01226806640625
1.52740478515625,0.98089599609375
1.52337646484375,0.96185302734375
1.52960205078125,0.932373046875
1.5264892578125,0.9456787109375
1.52081298828125,0.90594482421875
1.53680419921875,0.88922119140625
1.510498046875,0.86810302734375
1.5225830078125,0.861328125
1.5166015625,0.83697509765625
1.5074462890625,0.823974609375
1.53271484375,0.83984375
1.52081298828125,0.82470703125
END
BEGIN
0.0273895263671875,0.0704879760742188
0.0274276733398438,0.0714378356933594
0.0284843444824219,0.07391357421875
0.0290756225585938,0.0749435424804688
0.0296440124511719,0.0768890380859375
0.0301094055175781,0.0781364440917969
0.0307235717773438,0.0811195373535156
0.0327262878417969,0.0815086364746094
0.0336418151855469,0.0841865539550781
0.03521728515625,0.0867271423339844
0.0348892211914062,0.0878829956054688
0.0355720520019531,0.0900154113769531
0.036773681640625,0.0919876098632812
0.0373611450195312,0.0922660827636719
0.0381546020507812,0.0963211059570312
0.0394668579101562,0.0967864990234375
0.04083251953125,0.0992088317871094
0.0423698425292969,0.101737976074219
0.0444908142089844,0.102043151855469
0.0444068908691406,0.10430908203125
0.0463752746582031,0.105937957763672
0.0453453063964844,0.107799530029297
0.0481452941894531,0.109973907470703
0.0495338439941406,0.110355377197266
0.0503768920898438,0.111534118652344
0.0506858825683594,0.114059448242188
0.0528602600097656,0.115768432617188
0.0540428161621094,0.117256164550781
0.0537452697753906,0.120182037353516
0.0576019287109375,0.120098114013672
0.057525634765625,0.122566223144531
0.0593414306640625,0.123367309570312
0.060760498046875,0.125083923339844
0.0613250732421875,0.127655029296875
0.0624465942382812,0.128028869628906
0.0642547607421875,0.13055419921875
0.065460205078125,0.131126403808594
0.067779541015625,0.132431030273438
0.0690536499023438,0.13446044921875
0.0703887939453125,0.135780334472656
0.07183837890625,0.138031005859375
0.0732803344726562,0.138954162597656
0.0746002197265625,0.141815185546875
0.0751953125,0.142990112304688
0.0767822265625,0.143112182617188
0.0794143676757812,0.143562316894531
0.0812149047851562,0.146400451660156
0.0816650390625,0.148185729980469
0.0840988159179688,0.148872375488281
0.08416748046875,0.150833129882812
0.0863037109375,0.150611877441406
0.088409423828125,0.153175354003906
0.0900039672851562,0.154609680175781
0.092376708984375,0.156829833984375
0.0914993286132812,0.157234191894531
0.0940322875976562,0.158226013183594
0.0966949462890625,0.161140441894531
0.0976028442382812,0.161773681640625
0.099212646484375,0.163299560546875
0.100517272949219,0.165672302246094
0.102340698242188,0.163238525390625
0.105842590332031,0.166915893554688
0.1070556640625,0.168434143066406
0.10772705078125,0.168937683105469
0.112205505371094,0.172798156738281
0.112663269042969,0.171119689941406
0.1138916015625,0.173065185546875
0.115928649902344,0.173843383789062
0.116996765136719,0.174728393554688
0.120223999023438,0.1748046875
0.122657775878906,0.178611755371094
0.122535705566406,0.178741455078125
0.123847961425781,0.180549621582031
0.128364562988281,0.182281494140625
0.129478454589844,0.1837158203125
0.131202697753906,0.182830810546875
0.133743286132812,0.185226440429688
0.134086608886719,0.184661865234375
0.136573791503906,0.186508178710938
0.138908386230469,0.186576843261719
0.142013549804688,0.188346862792969
0.143142700195312,0.189437866210938
0.144020080566406,0.189254760742188
0.146820068359375,0.191291809082031
0.147972106933594,0.192581176757812
0.150192260742188,0.192184448242188
0.152153015136719,0.1942138671875
0.156021118164062,0.195877075195312
0.158172607421875,0.198318481445312
0.159774780273438,0.196182250976562
0.162307739257812,0.197898864746094
0.165252685546875,0.199699401855469
0.166450500488281,0.199287414550781
0.170066833496094,0.202445983886719
0.172004699707031,0.202606201171875
0.172897338867188,0.204444885253906
0.177566528320312,0.204727172851562
0.178802490234375,0.204116821289062
0.180747985839844,0.205696105957031
0.182518005371094,0.207733154296875
0.186691284179688,0.208084106445312
END
BEGIN
0.468887329101562,-0.210861206054688
0.465789794921875,-0.209869384765625
0.46453857421875,-0.20819091796875
0.461334228515625,-0.20892333984375
0.458465576171875,-0.209823608398438
0.455551147460938,-0.210769653320312
0.453460693359375,-0.210830688476562
0.451370239257812,-0.211395263671875
0.452880859375,-0.211517333984375
0.447845458984375,-0.212448120117188
0.447372436523438,-0.213150024414062
0.446136474609375,-0.213363647460938
0.441543579101562,-0.218032836914062
0.437088012695312,-0.2181396484375
0.435134887695312,-0.218353271484375
0.431869506835938,-0.216964721679688
0.435470581054688,-0.220672607421875
0.43255615234375,-0.219390869140625
0.43121337890625,-0.220046997070312
0.42999267578125,-0.2252197265625
0.426025390625,-0.226394653320312
0.428054809570312,-0.226516723632812
0.422149658203125,-0.229248046875
0.421127319335938,-0.228256225585938
0.417861938476562,-0.235031127929688
0.414657592773438,-0.228744506835938
0.411590576171875,-0.233779907226562
0.412994384765625,-0.233261108398438
0.404373168945312,-0.234466552734375
0.405075073242188,-0.237350463867188
0.400466918945312,-0.236251831054688
0.401138305664062,-0.241195678710938
0.395034790039062,-0.238372802734375
0.394134521484375,-0.24407958984375
0.395889282226562,-0.243392944335938
0.391311645507812,-0.247451782226562
0.388290405273438,-0.247039794921875
0.387252807617188,-0.252410888671875
0.383377075195312,-0.25225830078125
0.382797241210938,-0.250991821289062
0.378387451171875,-0.25396728515625
0.370986938476562,-0.251617431640625
0.370758056640625,-0.255523681640625
0.370819091796875,-0.256988525390625
0.370513916015625,-0.253921508789062
0.367416381835938,-0.254989624023438
0.360916137695312,-0.2572021484375
0.3604736328125,-0.261123657226562
0.360916137695312,-0.2625732421875
0.35284423828125,-0.262115478515625
0.3544921875,-0.265472412109375
0.348281860351562,-0.265090942382812
0.34930419921875,-0.267562866210938
0.347305297851562,-0.2664794921875
0.34161376953125,-0.267486572265625
0.338531494140625,-0.269073486328125
0.33538818359375,-0.270492553710938
0.332962036132812,-0.26849365234375
0.33197021484375,-0.27374267578125
0.3304443359375,-0.276336669921875
0.326385498046875,-0.272445678710938
0.325973510742188,-0.275497436523438
0.320465087890625,-0.275863647460938
0.314544677734375,-0.278091430664062
0.314407348632812,-0.280349731445312
0.311065673828125,-0.283401489257812
0.309234619140625,-0.283401489257812
0.303482055664062,-0.28125
0.30206298828125,-0.283370971679688
0.30181884765625,-0.283981323242188
0.294448852539062,-0.28363037109375
0.292022705078125,-0.283157348632812
0.292083740234375,-0.285324096679688
0.284988403320312,-0.284133911132812
0.283798217773438,-0.288360595703125
0.282302856445312,-0.288619995117188
0.278518676757812,-0.287338256835938
0.273910522460938,-0.288650512695312
0.271102905273438,-0.289764404296875
0.268112182617188,-0.288284301757812
0.264007568359375,-0.292068481445312
0.259918212890625,-0.291122436523438
0.261398315429688,-0.291427612304688
0.252853393554688,-0.29302978515625
0.2513427734375,-0.28729248046875
0.2491455078125,-0.291702270507812
0.245285034179688,-0.287887573242188
0.2423095703125,-0.289779663085938
0.234939575195312,-0.292129516601562
0.23297119140625,-0.292648315429688
0.22894287109375,-0.292739868164062
0.224700927734375,-0.291519165039062
0.222396850585938,-0.2900390625
0.229232788085938,-0.30419921875
0.216705322265625,-0.289505004882812
0.211532592773438,-0.293670654296875
0.205184936523438,-0.292190551757812
0.200881958007812,-0.285812377929688
0.198974609375,-0.286895751953125
0.196487426757812,-0.28033447265625
0.194549560546875,-0.2816162109375
END