CITIFILE A.01.01
COMMENT Dataset Name: /BFR91/BIAS8V5mA
COMMENT Modified: 14-Nov-94 16:36:16
NAME DATAvsFREQ
COMMENT #MDS DATATYPE SP

COMMENT #MDS VARTABLE FREQUENCIES
VAR FREQ MAG 101

DATA S[1,1] RI
DATA S[2,1] RI
DATA S[1,2] RI
DATA S[2,2] RI

SEG_LIST_BEGIN
SEG 500000000 2000000000 101
SEG_LIST_END

BEGIN
-0.0671463012695312,-0.230361938476562
-0.0714187622070312,-0.208343505859375
-0.0801010131835938,-0.20806884765625
-0.077728271484375,-0.186515808105469
-0.0884017944335938,-0.183586120605469
-0.0867767333984375,-0.169219970703125
-0.0948028564453125,-0.168235778808594
-0.09124755859375,-0.146759033203125
-0.0969467163085938,-0.143150329589844
-0.100807189941406,-0.137138366699219
-0.0981712341308594,-0.118824005126953
-0.109146118164062,-0.119297027587891
-0.105308532714844,-0.106639862060547
-0.105541229248047,-0.0946693420410156
-0.111625671386719,-0.0940055847167969
-0.107086181640625,-0.0793075561523438
-0.11083984375,-0.0756263732910156
-0.114845275878906,-0.0695343017578125
-0.109600067138672,-0.0571136474609375
-0.118133544921875,-0.056121826171875
-0.114421844482422,-0.0470123291015625
-0.113735198974609,-0.0391883850097656
-0.122241973876953,-0.0386238098144531
-0.112941741943359,-0.02349853515625
-0.119110107421875,-0.0212669372558594
-0.121654510498047,-0.0180397033691406
-0.113704681396484,-0.00791168212890625
-0.122634887695312,-0.00762557983398438
-0.119243621826172,0.003143310546875
-0.120349884033203,0.00969696044921875
-0.121536254882812,0.0125007629394531
-0.114833831787109,0.0231361389160156
-0.118595123291016,0.0267524719238281
-0.119922637939453,0.0290756225585938
-0.113460540771484,0.0368270874023438
-0.124492645263672,0.0410957336425781
-0.115516662597656,0.0439987182617188
-0.116794586181641,0.0512123107910156
-0.120498657226562,0.0546493530273438
-0.111888885498047,0.0627555847167969
-0.115589141845703,0.0683097839355469
-0.11370849609375,0.0682487487792969
-0.109230041503906,0.0770759582519531
-0.116668701171875,0.0782394409179688
-0.109260559082031,0.084991455078125
-0.109218597412109,0.0895919799804688
-0.113376617431641,0.0934333801269531
-0.103919982910156,0.0967559814453125
-0.108524322509766,0.101612091064453
-0.109516143798828,0.106201171875
-0.101692199707031,0.109237670898438
-0.113094329833984,0.112625122070312
-0.103878021240234,0.116672515869141
-0.101680755615234,0.123085021972656
-0.105186462402344,0.127281188964844
-0.0946273803710938,0.130271911621094
-0.0986557006835938,0.133529663085938
-0.0995025634765625,0.137344360351562
-0.091522216796875,0.139488220214844
-0.0985107421875,0.147163391113281
-0.0932540893554688,0.145904541015625
-0.0899581909179688,0.153251647949219
-0.0946426391601562,0.1591796875
-0.0878219604492188,0.160446166992188
-0.084259033203125,0.16595458984375
-0.0831985473632812,0.166755676269531
-0.0872344970703125,0.172492980957031
-0.0866546630859375,0.178314208984375
-0.07733154296875,0.177276611328125
-0.0831069946289062,0.185073852539062
-0.0791168212890625,0.188423156738281
-0.0737762451171875,0.189239501953125
-0.079315185546875,0.194122314453125
-0.072296142578125,0.196174621582031
-0.0737838745117188,0.200355529785156
-0.0732345581054688,0.205780029296875
-0.0672607421875,0.204719543457031
-0.0692367553710938,0.210617065429688
-0.0632095336914062,0.21270751953125
-0.0622482299804688,0.214424133300781
-0.0668792724609375,0.220085144042969
-0.0592041015625,0.21966552734375
-0.0591049194335938,0.227851867675781
-0.05731201171875,0.227363586425781
-0.05352783203125,0.225227355957031
-0.0595932006835938,0.234283447265625
-0.0536270141601562,0.233650207519531
-0.054901123046875,0.237838745117188
-0.0571975708007812,0.240211486816406
-0.048553466796875,0.241477966308594
-0.052459716796875,0.245254516601562
-0.0510025024414062,0.247177124023438
-0.0516281127929688,0.246170043945312
-0.051910400390625,0.267288208007812
-0.046966552734375,0.254409790039062
-0.05072021484375,0.253341674804688
-0.0523529052734375,0.254776000976562
-0.0518646240234375,0.25457763671875
-0.050628662109375,0.25970458984375
-0.0502777099609375,0.258743286132812
-0.051666259765625,0.2586669921875
END
BEGIN
-0.089111328125,5.10107421875
-0.044189453125,4.8505859375
0.0791015625,4.8369140625
0.1396484375,4.622802734375
0.232666015625,4.598388671875
0.2724609375,4.40283203125
0.365234375,4.364501953125
0.405517578125,4.20751953125
0.5068359375,4.17333984375
0.51708984375,4.066162109375
0.56298828125,3.939208984375
0.6507568359375,3.893798828125
0.6507568359375,3.7628173828125
0.714111328125,3.713134765625
0.779052734375,3.632080078125
0.779541015625,3.5220947265625
0.8424072265625,3.5107421875
0.84423828125,3.40234375
0.86767578125,3.3377685546875
0.937255859375,3.29248046875
0.9202880859375,3.1572265625
0.95703125,3.1429443359375
0.989501953125,3.1015625
0.98681640625,2.97021484375
1.041259765625,3.0006103515625
1.033935546875,2.8782958984375
1.0577392578125,2.839111328125
1.0927734375,2.7938232421875
1.103515625,2.70556640625
1.1256103515625,2.69970703125
1.1455078125,2.649658203125
1.1571044921875,2.560302734375
1.1947021484375,2.5274658203125
1.159423828125,2.48828125
1.181640625,2.4119873046875
1.2127685546875,2.3953857421875
1.189697265625,2.322509765625
1.2490234375,2.309326171875
1.2547607421875,2.29296875
1.23681640625,2.205810546875
1.2626953125,2.1998291015625
1.250732421875,2.1322021484375
1.26708984375,2.07763671875
1.3017578125,2.08544921875
1.2825927734375,2.0028076171875
1.2994384765625,2.0079345703125
1.30804443359375,1.96636962890625
1.31719970703125,1.8951416015625
1.32733154296875,1.8968505859375
1.31689453125,1.87408447265625
1.295166015625,1.83074951171875
1.31982421875,1.8199462890625
1.31689453125,1.7691650390625
1.34228515625,1.74114990234375
1.33917236328125,1.7105712890625
1.343017578125,1.655029296875
1.36993408203125,1.66839599609375
1.3408203125,1.617431640625
1.35357666015625,1.59521484375
1.37640380859375,1.58831787109375
1.33343505859375,1.53125
1.385009765625,1.52801513671875
1.3695068359375,1.47943115234375
1.364990234375,1.45318603515625
1.36822509765625,1.43402099609375
1.36907958984375,1.39520263671875
1.3988037109375,1.3948974609375
1.39105224609375,1.349853515625
1.37017822265625,1.3509521484375
1.3758544921875,1.3345947265625
1.3734130859375,1.2711181640625
1.3887939453125,1.26446533203125
1.38818359375,1.24493408203125
1.37713623046875,1.2166748046875
1.38421630859375,1.222412109375
1.38311767578125,1.1654052734375
1.3948974609375,1.16400146484375
1.39410400390625,1.1419677734375
1.3795166015625,1.1126708984375
1.38873291015625,1.1038818359375
1.38775634765625,1.08319091796875
1.3892822265625,1.04779052734375
1.4014892578125,1.05810546875
1.36944580078125,1.0230712890625
1.38104248046875,1.00201416015625
1.382568359375,1.00830078125
1.38140869140625,0.9744873046875
1.39794921875,0.9635009765625
1.3939208984375,0.93280029296875
1.37744140625,0.917724609375
1.394287109375,0.9149169921875
1.387451171875,0.887939453125
1.4002685546875,0.86688232421875
1.3985595703125,0.8597412109375
1.39105224609375,0.83026123046875
1.39105224609375,0.821533203125
1.38946533203125,0.8109130859375
1.3905029296875,0.79913330078125
1.4044189453125,0.78875732421875
1.38311767578125,0.76226806640625
1.39605712890625,0.7572021484375
END
BEGIN
0.033660888671875,0.0631866455078125
0.0353355407714844,0.0640296936035156
0.0348167419433594,0.0648727416992188
0.0351219177246094,0.0680313110351562
0.0361709594726562,0.0681610107421875
0.0370941162109375,0.0697555541992188
0.0366287231445312,0.0723342895507812
0.0396232604980469,0.0736465454101562
0.0389213562011719,0.074676513671875
0.0396652221679688,0.07550048828125
0.0402030944824219,0.0763359069824219
0.03936767578125,0.0783920288085938
0.0412750244140625,0.0806808471679688
0.0410919189453125,0.0815620422363281
0.0437278747558594,0.0825157165527344
0.0444793701171875,0.0838508605957031
0.043670654296875,0.0857925415039062
0.0455093383789062,0.0882110595703125
0.046295166015625,0.0884513854980469
0.0465545654296875,0.0909614562988281
0.04779052734375,0.0919647216796875
0.0475616455078125,0.0935783386230469
0.0488967895507812,0.0953178405761719
0.0504722595214844,0.0946083068847656
0.0511093139648438,0.0975112915039062
0.05303955078125,0.0986404418945312
0.0540237426757812,0.101356506347656
0.0538177490234375,0.101211547851562
0.0545387268066406,0.102890014648438
0.0554313659667969,0.105152130126953
0.056671142578125,0.104957580566406
0.0569648742675781,0.106124877929688
0.0576019287109375,0.109241485595703
0.0597381591796875,0.108917236328125
0.0603218078613281,0.111278533935547
0.0617141723632812,0.113796234130859
0.0600471496582031,0.113193511962891
0.0632476806640625,0.116794586181641
0.0638351440429688,0.115901947021484
0.0653762817382812,0.117801666259766
0.0659599304199219,0.121463775634766
0.067840576171875,0.120998382568359
0.0688743591308594,0.121543884277344
0.0689544677734375,0.125465393066406
0.0688552856445312,0.124217987060547
0.0706024169921875,0.126998901367188
0.072784423828125,0.126190185546875
0.0736770629882812,0.128166198730469
0.0747299194335938,0.131355285644531
0.0744094848632812,0.13165283203125
0.0756454467773438,0.134811401367188
0.0778045654296875,0.134994506835938
0.0786285400390625,0.13482666015625
0.0790863037109375,0.138664245605469
0.0803985595703125,0.138969421386719
0.0831222534179688,0.138389587402344
0.0847015380859375,0.142898559570312
0.08465576171875,0.139656066894531
0.0866851806640625,0.142173767089844
0.0886459350585938,0.146209716796875
0.0880889892578125,0.145759582519531
0.0905914306640625,0.149185180664062
0.0908584594726562,0.148933410644531
0.0927963256835938,0.149971008300781
0.0954132080078125,0.151908874511719
0.0968704223632812,0.151657104492188
0.0980911254882812,0.155754089355469
0.0990066528320312,0.154838562011719
0.100471496582031,0.155326843261719
0.102729797363281,0.158729553222656
0.102035522460938,0.158355712890625
0.105300903320312,0.161666870117188
0.106620788574219,0.161544799804688
0.107780456542969,0.162734985351562
0.110893249511719,0.165359497070312
0.108413696289062,0.164299011230469
0.111480712890625,0.166908264160156
0.114456176757812,0.166587829589844
0.11273193359375,0.167793273925781
0.117988586425781,0.16937255859375
0.118064880371094,0.169532775878906
0.120025634765625,0.173088073730469
0.122528076171875,0.173912048339844
0.122337341308594,0.173408508300781
0.124870300292969,0.176544189453125
0.126907348632812,0.176033020019531
0.126213073730469,0.178573608398438
0.131149291992188,0.181175231933594
0.131004333496094,0.181297302246094
0.133491516113281,0.182449340820312
0.136444091796875,0.184410095214844
0.137237548828125,0.185386657714844
0.138824462890625,0.187507629394531
0.142143249511719,0.189430236816406
0.141242980957031,0.187965393066406
0.144889831542969,0.191375732421875
0.146560668945312,0.191741943359375
0.147659301757812,0.192283630371094
0.150703430175781,0.194915771484375
0.152420043945312,0.195869445800781
0.154579162597656,0.198348999023438
END
BEGIN
0.56011962890625,-0.249176025390625
0.557769775390625,-0.246673583984375
0.5548095703125,-0.24713134765625
0.547119140625,-0.246490478515625
0.544921875,-0.246856689453125
0.5433349609375,-0.2490234375
0.539764404296875,-0.2489013671875
0.537750244140625,-0.251495361328125
0.5400390625,-0.25067138671875
0.531158447265625,-0.24969482421875
0.533477783203125,-0.252838134765625
0.529998779296875,-0.249786376953125
0.522979736328125,-0.25146484375
0.525848388671875,-0.25592041015625
0.514190673828125,-0.253082275390625
0.51800537109375,-0.254730224609375
0.520294189453125,-0.2569580078125
0.51275634765625,-0.25653076171875
0.51446533203125,-0.259613037109375
0.50836181640625,-0.26068115234375
0.507110595703125,-0.262176513671875
0.512451171875,-0.2659912109375
0.5029296875,-0.26348876953125
0.50439453125,-0.2630615234375
0.500946044921875,-0.26763916015625
0.49188232421875,-0.26580810546875
0.494613647460938,-0.273406982421875
0.48834228515625,-0.268798828125
0.486114501953125,-0.27239990234375
0.488662719726562,-0.277618408203125
0.479766845703125,-0.273208618164062
0.481109619140625,-0.277084350585938
0.475051879882812,-0.2801513671875
0.472869873046875,-0.276824951171875
0.478057861328125,-0.284332275390625
0.469345092773438,-0.282882690429688
0.468460083007812,-0.28125
0.46728515625,-0.294662475585938
0.458786010742188,-0.284347534179688
0.46392822265625,-0.29119873046875
0.459701538085938,-0.291091918945312
0.453201293945312,-0.288116455078125
0.456161499023438,-0.297637939453125
0.453826904296875,-0.297637939453125
0.449981689453125,-0.295074462890625
0.448562622070312,-0.299179077148438
0.440200805664062,-0.297958374023438
0.4439697265625,-0.301925659179688
0.437957763671875,-0.30499267578125
0.434967041015625,-0.299957275390625
0.435470581054688,-0.310867309570312
0.42681884765625,-0.307388305664062
0.428604125976562,-0.309768676757812
0.43017578125,-0.312332153320312
0.416549682617188,-0.30908203125
0.418228149414062,-0.313720703125
0.418991088867188,-0.316207885742188
0.411819458007812,-0.313125610351562
0.417449951171875,-0.323684692382812
0.407196044921875,-0.321517944335938
0.40606689453125,-0.320266723632812
0.41021728515625,-0.326431274414062
0.399765014648438,-0.3221435546875
0.395584106445312,-0.325119018554688
0.39373779296875,-0.32586669921875
0.392868041992188,-0.334930419921875
0.392135620117188,-0.334671020507812
0.38275146484375,-0.32763671875
0.387359619140625,-0.340286254882812
0.380233764648438,-0.332794189453125
0.376663208007812,-0.33367919921875
0.37603759765625,-0.338134765625
0.3660888671875,-0.336196899414062
0.366470336914062,-0.340713500976562
0.3671875,-0.342559814453125
0.36090087890625,-0.340621948242188
0.362228393554688,-0.347930908203125
0.352569580078125,-0.344161987304688
0.348648071289062,-0.349273681640625
0.351409912109375,-0.35113525390625
0.341690063476562,-0.347991943359375
0.34185791015625,-0.350448608398438
0.34136962890625,-0.3568115234375
0.331573486328125,-0.351837158203125
0.332168579101562,-0.353683471679688
0.3258056640625,-0.3526611328125
0.322052001953125,-0.35125732421875
0.321029663085938,-0.362457275390625
0.313995361328125,-0.355255126953125
0.311126708984375,-0.359573364257812
0.308334350585938,-0.359970092773438
0.30096435546875,-0.356231689453125
0.30181884765625,-0.365402221679688
0.306198120117188,-0.379806518554688
0.290985107421875,-0.362258911132812
0.28936767578125,-0.36767578125
0.278945922851562,-0.362274169921875
0.276748657226562,-0.361541748046875
0.272369384765625,-0.363189697265625
0.266616821289062,-0.354537963867188
0.265167236328125,-0.362319946289062
END