CITIFILE A.01.01
COMMENT Dataset Name: /BFR91/BIAS8V30mA
COMMENT Modified: 14-Nov-94 16:27:00
NAME DATAvsFREQ
COMMENT #MDS DATATYPE SP

COMMENT #MDS VARTABLE FREQUENCIES
VAR FREQ MAG 101

DATA S[1,1] RI
DATA S[2,1] RI
DATA S[1,2] RI
DATA S[2,2] RI

SEG_LIST_BEGIN
SEG 500000000 2000000000 101
SEG_LIST_END

BEGIN
0.0103569030761719,-0.0256748199462891
0.00988578796386719,-0.021937370300293
0.00768852233886719,-0.0201930999755859
0.00976896286010742,-0.0135006904602051
0.00584506988525391,-0.011497974395752
0.00774097442626953,-0.00891685485839844
0.00514030456542969,-0.00664615631103516
0.00637102127075195,-0.00362825393676758
0.00568914413452148,-0.000746488571166992
0.00430417060852051,0.000909566879272461
0.00443029403686523,0.00690746307373047
0.00318050384521484,0.00948572158813477
0.0028839111328125,0.0122523307800293
0.00144290924072266,0.0152063369750977
0.00131416320800781,0.017085075378418
0.00104331970214844,0.0207290649414062
0.00174427032470703,0.0240478515625
-0.000354766845703125,0.0266933441162109
-0.000451087951660156,0.0291767120361328
-0.00100231170654297,0.0312023162841797
-0.00102043151855469,0.0342960357666016
-0.0008544921875,0.0356674194335938
-0.00237464904785156,0.0374546051025391
-0.00260543823242188,0.0426998138427734
-0.00588798522949219,0.0445995330810547
-0.00375175476074219,0.0447864532470703
-0.00350189208984375,0.0485801696777344
-0.00550079345703125,0.050323486328125
-0.00662040710449219,0.0534706115722656
-0.00665283203125,0.0559005737304688
-0.00596809387207031,0.0599288940429688
-0.00603485107421875,0.0633277893066406
-0.00667572021484375,0.0650291442871094
-0.00665664672851562,0.0678825378417969
-0.00683212280273438,0.0656166076660156
-0.00788116455078125,0.0698661804199219
-0.00661468505859375,0.0704765319824219
-0.00856399536132812,0.0734100341796875
-0.00889968872070312,0.0778923034667969
-0.0102958679199219,0.0791549682617188
-0.00836563110351562,0.0828056335449219
-0.008209228515625,0.0824775695800781
-0.00839614868164062,0.0859336853027344
-0.00671768188476562,0.08856201171875
-0.008392333984375,0.0913887023925781
-0.00805282592773438,0.0932426452636719
-0.00813674926757812,0.098114013671875
-0.00912094116210938,0.0973052978515625
-0.00693130493164062,0.0986213684082031
-0.0105018615722656,0.101539611816406
-0.00847625732421875,0.103164672851562
-0.0105705261230469,0.104404449462891
-0.0111503601074219,0.106338500976562
-0.00848770141601562,0.112445831298828
-0.00922393798828125,0.114315032958984
-0.00862884521484375,0.114265441894531
-0.00651168823242188,0.118690490722656
-0.00687789916992188,0.120185852050781
-0.00633621215820312,0.122329711914062
-0.007415771484375,0.124561309814453
-0.00849151611328125,0.125778198242188
-0.00681304931640625,0.130264282226562
-0.00846099853515625,0.132591247558594
-0.0083770751953125,0.1357421875
-0.00638580322265625,0.141517639160156
-0.0086212158203125,0.140113830566406
-0.007232666015625,0.142616271972656
-0.00778961181640625,0.14556884765625
-0.00434112548828125,0.145294189453125
-0.004608154296875,0.14996337890625
-0.0044403076171875,0.152442932128906
-0.0023956298828125,0.154518127441406
-0.00579833984375,0.154075622558594
-0.0035552978515625,0.1614990234375
-0.003570556640625,0.159896850585938
-0.0028839111328125,0.163825988769531
-0.0024871826171875,0.168022155761719
-0.00101470947265625,0.168121337890625
-0.0010833740234375,0.170516967773438
-0.0004730224609375,0.172103881835938
-0.00174713134765625,0.172431945800781
-0.00012969970703125,0.175483703613281
0.0011749267578125,0.179931640625
0.00225067138671875,0.1802978515625
0.00331878662109375,0.180770874023438
-0.0018310546875,0.187217712402344
0.00060272216796875,0.187759399414062
0.00017547607421875,0.190544128417969
-0.00191497802734375,0.191581726074219
0.00115203857421875,0.194000244140625
-0.0027008056640625,0.194679260253906
-0.002838134765625,0.198280334472656
-0.00566864013671875,0.198379516601562
-0.00240325927734375,0.211318969726562
-0.00478363037109375,0.204658508300781
-0.007415771484375,0.201774597167969
-0.00832366943359375,0.201675415039062
-0.0104751586914062,0.20697021484375
-0.0095672607421875,0.206962585449219
-0.0100631713867188,0.209228515625
-0.0155181884765625,0.209159851074219
END
BEGIN
0.988525390625,6.2783203125
1.006103515625,6.079833984375
1.050048828125,5.88916015625
1.12451171875,5.708984375
1.135009765625,5.567138671875
1.16943359375,5.42822265625
1.19189453125,5.258544921875
1.24853515625,5.14892578125
1.24560546875,4.990966796875
1.273681640625,4.885009765625
1.3193359375,4.77099609375
1.327880859375,4.63037109375
1.35498046875,4.53271484375
1.380615234375,4.43994140625
1.383544921875,4.317626953125
1.388916015625,4.238037109375
1.42529296875,4.137451171875
1.412353515625,4.04296875
1.43603515625,3.955322265625
1.4483642578125,3.851318359375
1.4599609375,3.7703857421875
1.47900390625,3.693359375
1.4881591796875,3.6158447265625
1.47021484375,3.5797119140625
1.523193359375,3.4952392578125
1.5135498046875,3.4429931640625
1.5301513671875,3.337646484375
1.5394287109375,3.275634765625
1.5709228515625,3.19287109375
1.5262451171875,3.21435546875
1.5684814453125,3.08203125
1.545654296875,3.0181884765625
1.5577392578125,2.969482421875
1.569091796875,2.89697265625
1.6141357421875,2.8804931640625
1.5548095703125,2.797607421875
1.5986328125,2.7677001953125
1.585693359375,2.777099609375
1.629150390625,2.6820068359375
1.6025390625,2.6221923828125
1.627197265625,2.5792236328125
1.605712890625,2.5220947265625
1.5916748046875,2.4697265625
1.63330078125,2.455810546875
1.616455078125,2.391357421875
1.6220703125,2.364501953125
1.6353759765625,2.32568359375
1.65673828125,2.3082275390625
1.612060546875,2.2421875
1.614990234375,2.204345703125
1.640380859375,2.17724609375
1.6243896484375,2.1553955078125
1.6507568359375,2.08544921875
1.650390625,2.057861328125
1.6416015625,2.001220703125
1.6605224609375,2.0003662109375
1.6429443359375,1.95361328125
1.66595458984375,1.9390869140625
1.64886474609375,1.8743896484375
1.6387939453125,1.88323974609375
1.6268310546875,1.85797119140625
1.65478515625,1.77783203125
1.64984130859375,1.754150390625
1.63385009765625,1.77032470703125
1.67095947265625,1.686767578125
1.61480712890625,1.69744873046875
1.64324951171875,1.6474609375
1.61199951171875,1.61590576171875
1.64666748046875,1.60394287109375
1.65472412109375,1.5614013671875
1.66650390625,1.53948974609375
1.6556396484375,1.489013671875
1.6368408203125,1.50494384765625
1.653564453125,1.456298828125
1.63543701171875,1.446044921875
1.65203857421875,1.4024658203125
1.65777587890625,1.41790771484375
1.643310546875,1.3428955078125
1.67791748046875,1.37139892578125
1.6431884765625,1.328369140625
1.62591552734375,1.31402587890625
1.61492919921875,1.2763671875
1.6378173828125,1.2509765625
1.63983154296875,1.2470703125
1.63623046875,1.20281982421875
1.65338134765625,1.21795654296875
1.65447998046875,1.17950439453125
1.65252685546875,1.14617919921875
1.65234375,1.17083740234375
1.65960693359375,1.09368896484375
1.64398193359375,1.1077880859375
1.6353759765625,1.10137939453125
1.61395263671875,1.0997314453125
1.64227294921875,1.0745849609375
1.6336669921875,1.01922607421875
1.63848876953125,1.05059814453125
1.60235595703125,0.997802734375
1.61407470703125,0.963623046875
1.6240234375,0.95477294921875
1.6466064453125,0.9512939453125
1.6519775390625,0.95318603515625
END
BEGIN
0.0195083618164062,0.0714530944824219
0.0192451477050781,0.0731315612792969
0.0195198059082031,0.0753326416015625
0.0207023620605469,0.0771102905273438
0.0220985412597656,0.0788421630859375
0.0235671997070312,0.0803604125976562
0.02325439453125,0.0831146240234375
0.0254859924316406,0.0840721130371094
0.025787353515625,0.0865707397460938
0.0266494750976562,0.0882606506347656
0.0285377502441406,0.090606689453125
0.029327392578125,0.09283447265625
0.0302810668945312,0.095489501953125
0.0315475463867188,0.095977783203125
0.0316200256347656,0.0982246398925781
0.0322341918945312,0.0997161865234375
0.0346946716308594,0.102634429931641
0.0353355407714844,0.10284423828125
0.0373497009277344,0.104747772216797
0.03729248046875,0.10772705078125
0.0391731262207031,0.109970092773438
0.0394935607910156,0.110721588134766
0.039825439453125,0.112789154052734
0.0425148010253906,0.115146636962891
0.0443077087402344,0.113677978515625
0.0449981689453125,0.118762969970703
0.0461006164550781,0.120204925537109
0.048431396484375,0.120658874511719
0.0486831665039062,0.124412536621094
0.0493621826171875,0.125358581542969
0.0510101318359375,0.126785278320312
0.0542984008789062,0.127792358398438
0.0549545288085938,0.130302429199219
0.0565643310546875,0.130828857421875
0.0574264526367188,0.133941650390625
0.0566558837890625,0.133895874023438
0.0599899291992188,0.136154174804688
0.0616912841796875,0.138519287109375
0.062225341796875,0.139900207519531
0.0655746459960938,0.141456604003906
0.0645904541015625,0.142890930175781
0.0671920776367188,0.144195556640625
0.068878173828125,0.1444091796875
0.0716018676757812,0.148223876953125
0.0717849731445312,0.148490905761719
0.0738754272460938,0.148674011230469
0.076568603515625,0.1510009765625
0.0763473510742188,0.153175354003906
0.0788726806640625,0.154510498046875
0.0801849365234375,0.156890869140625
0.0823211669921875,0.157768249511719
0.0831832885742188,0.158004760742188
0.0839004516601562,0.159049987792969
0.086334228515625,0.162094116210938
0.0887603759765625,0.163742065429688
0.0891571044921875,0.162513732910156
0.0920257568359375,0.165092468261719
0.0951461791992188,0.166107177734375
0.0953216552734375,0.168281555175781
0.0997695922851562,0.168182373046875
0.0999298095703125,0.168922424316406
0.100906372070312,0.172470092773438
0.102264404296875,0.173843383789062
0.105140686035156,0.173423767089844
0.107124328613281,0.174400329589844
0.108139038085938,0.176811218261719
0.111236572265625,0.178733825683594
0.11419677734375,0.179763793945312
0.114753723144531,0.178047180175781
0.116828918457031,0.180938720703125
0.119438171386719,0.182060241699219
0.120262145996094,0.18359375
0.123695373535156,0.184028625488281
0.126602172851562,0.186164855957031
0.127616882324219,0.186210632324219
0.127212524414062,0.188247680664062
0.130393981933594,0.188865661621094
0.132362365722656,0.188453674316406
0.134529113769531,0.19140625
0.138542175292969,0.191886901855469
0.138755798339844,0.192619323730469
0.141937255859375,0.194473266601562
0.143608093261719,0.194549560546875
0.145576477050781,0.196258544921875
0.148208618164062,0.196044921875
0.151695251464844,0.196525573730469
0.151687622070312,0.19720458984375
0.155525207519531,0.198394775390625
0.156112670898438,0.201210021972656
0.159965515136719,0.201622009277344
0.161994934082031,0.201469421386719
0.164039611816406,0.202400207519531
0.166984558105469,0.204277038574219
0.169761657714844,0.205184936523438
0.171745300292969,0.204887390136719
0.173477172851562,0.206649780273438
0.1754150390625,0.208389282226562
0.177764892578125,0.206840515136719
0.180007934570312,0.208839416503906
0.183403015136719,0.20953369140625
0.187522888183594,0.211296081542969
END
BEGIN
0.452789306640625,-0.165191650390625
0.45086669921875,-0.16656494140625
0.449005126953125,-0.1649169921875
0.445999145507812,-0.164016723632812
0.441665649414062,-0.165847778320312
0.444046020507812,-0.169921875
0.440948486328125,-0.16986083984375
0.43853759765625,-0.171401977539062
0.439071655273438,-0.172882080078125
0.437042236328125,-0.17315673828125
0.436019897460938,-0.179550170898438
0.435104370117188,-0.174896240234375
0.43206787109375,-0.178955078125
0.429367065429688,-0.180404663085938
0.423507690429688,-0.182342529296875
0.424667358398438,-0.181594848632812
0.424697875976562,-0.1839599609375
0.423553466796875,-0.187698364257812
0.421310424804688,-0.188003540039062
0.421661376953125,-0.192352294921875
0.41937255859375,-0.193893432617188
0.418350219726562,-0.19366455078125
0.416107177734375,-0.1966552734375
0.4124755859375,-0.1981201171875
0.410171508789062,-0.202041625976562
0.404876708984375,-0.201004028320312
0.403610229492188,-0.205047607421875
0.398178100585938,-0.20159912109375
0.397628784179688,-0.207107543945312
0.398941040039062,-0.207244873046875
0.394210815429688,-0.20635986328125
0.393768310546875,-0.212188720703125
0.390060424804688,-0.211990356445312
0.3895263671875,-0.212432861328125
0.388656616210938,-0.21343994140625
0.385498046875,-0.217330932617188
0.382904052734375,-0.216094970703125
0.380828857421875,-0.224166870117188
0.377670288085938,-0.223098754882812
0.375595092773438,-0.225692749023438
0.370132446289062,-0.225234985351562
0.369903564453125,-0.224533081054688
0.365936279296875,-0.228302001953125
0.366851806640625,-0.2315673828125
0.365142822265625,-0.227035522460938
0.361358642578125,-0.228668212890625
0.357208251953125,-0.230804443359375
0.35614013671875,-0.233596801757812
0.354812622070312,-0.234817504882812
0.35235595703125,-0.235824584960938
0.347824096679688,-0.237594604492188
0.345245361328125,-0.239593505859375
0.346588134765625,-0.240936279296875
0.342178344726562,-0.241790771484375
0.336654663085938,-0.242446899414062
0.33428955078125,-0.243698120117188
0.332244873046875,-0.243072509765625
0.329818725585938,-0.245712280273438
0.3304443359375,-0.248214721679688
0.327102661132812,-0.2469482421875
0.321624755859375,-0.247817993164062
0.322174072265625,-0.251373291015625
0.31658935546875,-0.250823974609375
0.312652587890625,-0.252090454101562
0.310104370117188,-0.255416870117188
0.307327270507812,-0.256942749023438
0.305191040039062,-0.259384155273438
0.301513671875,-0.255096435546875
0.298599243164062,-0.25726318359375
0.297500610351562,-0.255050659179688
0.295578002929688,-0.255172729492188
0.291656494140625,-0.257827758789062
0.289459228515625,-0.259109497070312
0.282745361328125,-0.257583618164062
0.28363037109375,-0.259918212890625
0.27972412109375,-0.259490966796875
0.280242919921875,-0.264541625976562
0.272247314453125,-0.261459350585938
0.26971435546875,-0.261337280273438
0.267929077148438,-0.26177978515625
0.262649536132812,-0.26324462890625
0.261062622070312,-0.2630615234375
0.259201049804688,-0.265533447265625
0.254135131835938,-0.266647338867188
0.251083374023438,-0.263229370117188
0.246429443359375,-0.261398315429688
0.247116088867188,-0.260971069335938
0.243942260742188,-0.262557983398438
0.238784790039062,-0.264877319335938
0.236083984375,-0.266250610351562
0.23272705078125,-0.263504028320312
0.226806640625,-0.262985229492188
0.226730346679688,-0.262893676757812
0.232879638671875,-0.274765014648438
0.221328735351562,-0.2608642578125
0.215911865234375,-0.263885498046875
0.21002197265625,-0.261245727539062
0.208145141601562,-0.258926391601562
0.20574951171875,-0.25628662109375
0.201889038085938,-0.25177001953125
0.202407836914062,-0.251174926757812
END