CITIFILE A.01.01
COMMENT Dataset Name: /BFR91/BIAS5V30mA
COMMENT Modified: 14-Nov-94 16:18:57
NAME DATAvsFREQ
COMMENT #MDS DATATYPE SP

COMMENT #MDS VARTABLE FREQUENCIES
VAR FREQ MAG 101

DATA S[1,1] RI
DATA S[2,1] RI
DATA S[1,2] RI
DATA S[2,2] RI

SEG_LIST_BEGIN
SEG 500000000 2000000000 101
SEG_LIST_END

BEGIN
-0.0204954147338867,-0.0096282958984375
-0.0210657119750977,-0.00559616088867188
-0.0233888626098633,-0.00330924987792969
-0.0194969177246094,0.00352191925048828
-0.0231571197509766,0.00696372985839844
-0.0214471817016602,0.00857448577880859
-0.0236692428588867,0.01129150390625
-0.0217761993408203,0.0141153335571289
-0.0237312316894531,0.018341064453125
-0.0256328582763672,0.0204896926879883
-0.024928092956543,0.025090217590332
-0.026331901550293,0.0285072326660156
-0.0261831283569336,0.0296001434326172
-0.0261631011962891,0.033111572265625
-0.0263175964355469,0.0370655059814453
-0.0260200500488281,0.0391674041748047
-0.0257244110107422,0.0432262420654297
-0.0276508331298828,0.0476093292236328
-0.0276947021484375,0.049713134765625
-0.0287895202636719,0.0517425537109375
-0.0282058715820312,0.0532703399658203
-0.0272769927978516,0.0562648773193359
-0.0293178558349609,0.0582618713378906
-0.0282859802246094,0.0640373229980469
-0.029541015625,0.0651741027832031
-0.0298728942871094,0.0677299499511719
-0.03192138671875,0.0714836120605469
-0.0305137634277344,0.0708580017089844
-0.0321159362792969,0.0747261047363281
-0.0331611633300781,0.0787506103515625
-0.0293769836425781,0.0820655822753906
-0.0299034118652344,0.0829505920410156
-0.0298385620117188,0.0878562927246094
-0.0292930603027344,0.0910758972167969
-0.0301933288574219,0.0906486511230469
-0.0301284790039062,0.0929603576660156
-0.0291900634765625,0.0927886962890625
-0.0314216613769531,0.096466064453125
-0.0322990417480469,0.100833892822266
-0.0320625305175781,0.105812072753906
-0.0309638977050781,0.108734130859375
-0.0303153991699219,0.107101440429688
-0.02960205078125,0.110565185546875
-0.0297126770019531,0.112495422363281
-0.0281600952148438,0.114315032958984
-0.0299034118652344,0.118156433105469
-0.02880859375,0.121391296386719
-0.0284423828125,0.122150421142578
-0.0272598266601562,0.123935699462891
-0.030303955078125,0.1265869140625
-0.0287551879882812,0.129051208496094
-0.03021240234375,0.129402160644531
-0.0295639038085938,0.132774353027344
-0.0274734497070312,0.13946533203125
-0.0276031494140625,0.141464233398438
-0.0257492065429688,0.142471313476562
-0.0252609252929688,0.144783020019531
-0.0242462158203125,0.144989013671875
-0.0243911743164062,0.147247314453125
-0.026092529296875,0.152801513671875
-0.0270233154296875,0.150070190429688
-0.0248184204101562,0.156265258789062
-0.0240554809570312,0.1622314453125
-0.023406982421875,0.161705017089844
-0.0234146118164062,0.167640686035156
-0.024017333984375,0.167182922363281
-0.022003173828125,0.171363830566406
-0.0221939086914062,0.172630310058594
-0.0191879272460938,0.173667907714844
-0.0202484130859375,0.179008483886719
-0.0196151733398438,0.181877136230469
-0.0177993774414062,0.183540344238281
-0.01788330078125,0.182723999023438
-0.0185089111328125,0.189796447753906
-0.0159683227539062,0.190055847167969
-0.0159683227539062,0.194129943847656
-0.0172805786132812,0.195075988769531
-0.0137863159179688,0.196464538574219
-0.0143966674804688,0.199806213378906
-0.012847900390625,0.200065612792969
-0.0152359008789062,0.202842712402344
-0.01177978515625,0.204902648925781
-0.0117263793945312,0.209907531738281
-0.0113677978515625,0.210273742675781
-0.011688232421875,0.211349487304688
-0.014007568359375,0.215850830078125
-0.0105438232421875,0.216400146484375
-0.0117950439453125,0.220138549804688
-0.0138168334960938,0.221305847167969
-0.0116348266601562,0.222770690917969
-0.0145797729492188,0.225959777832031
-0.0128860473632812,0.228225708007812
-0.0148468017578125,0.228897094726562
-0.0131988525390625,0.242996215820312
-0.0133209228515625,0.233436584472656
-0.01483154296875,0.231781005859375
-0.01690673828125,0.23199462890625
-0.0198516845703125,0.236099243164062
-0.0193405151367188,0.237281799316406
-0.0194473266601562,0.237411499023438
-0.0232467651367188,0.240066528320312
END
BEGIN
1.010498046875,6.07763671875
1.074951171875,5.894775390625
1.082763671875,5.71142578125
1.1474609375,5.5830078125
1.19287109375,5.394775390625
1.1943359375,5.25341796875
1.22802734375,5.088623046875
1.2529296875,4.99462890625
1.271728515625,4.844482421875
1.289794921875,4.739013671875
1.33935546875,4.614501953125
1.352294921875,4.476806640625
1.33056640625,4.397705078125
1.3828125,4.27880859375
1.39501953125,4.15625
1.40869140625,4.06884765625
1.4219970703125,3.97900390625
1.425537109375,3.907958984375
1.4259033203125,3.853271484375
1.4710693359375,3.723388671875
1.4468994140625,3.6357421875
1.4892578125,3.569580078125
1.47705078125,3.4925537109375
1.4906005859375,3.4364013671875
1.5081787109375,3.35888671875
1.5091552734375,3.27197265625
1.5147705078125,3.25048828125
1.541748046875,3.163818359375
1.54541015625,3.080810546875
1.520751953125,3.0362548828125
1.5673828125,2.99267578125
1.6025390625,2.907470703125
1.5380859375,2.832275390625
1.547607421875,2.8170166015625
1.56787109375,2.7581787109375
1.576171875,2.685791015625
1.6016845703125,2.6500244140625
1.5804443359375,2.6142578125
1.6087646484375,2.5694580078125
1.61083984375,2.53955078125
1.59619140625,2.447998046875
1.6051025390625,2.415771484375
1.63671875,2.3729248046875
1.6278076171875,2.3660888671875
1.61376953125,2.2740478515625
1.6578369140625,2.27490234375
1.621826171875,2.22216796875
1.6258544921875,2.2049560546875
1.63525390625,2.140625
1.62060546875,2.0970458984375
1.6259765625,2.0811767578125
1.634521484375,2.035400390625
1.651611328125,2.00439453125
1.64227294921875,1.95904541015625
1.60711669921875,1.89898681640625
1.626220703125,1.86517333984375
1.6219482421875,1.87030029296875
1.63330078125,1.828369140625
1.6468505859375,1.783203125
1.67218017578125,1.76580810546875
1.63482666015625,1.741455078125
1.64630126953125,1.6612548828125
1.6544189453125,1.67938232421875
1.65472412109375,1.66058349609375
1.6575927734375,1.6209716796875
1.6680908203125,1.6141357421875
1.63970947265625,1.5565185546875
1.619140625,1.54705810546875
1.62957763671875,1.501708984375
1.6649169921875,1.51580810546875
1.64068603515625,1.46453857421875
1.6395263671875,1.440673828125
1.6204833984375,1.37738037109375
1.64776611328125,1.37518310546875
1.61944580078125,1.3873291015625
1.621337890625,1.3944091796875
1.62640380859375,1.33721923828125
1.63299560546875,1.29248046875
1.62835693359375,1.28558349609375
1.61376953125,1.2662353515625
1.61187744140625,1.20611572265625
1.621826171875,1.22003173828125
1.671875,1.21966552734375
1.65081787109375,1.1463623046875
1.61309814453125,1.15484619140625
1.61456298828125,1.14373779296875
1.609130859375,1.12921142578125
1.631591796875,1.1104736328125
1.611083984375,1.07525634765625
1.60980224609375,1.03912353515625
1.61260986328125,1.038818359375
1.64306640625,1.01690673828125
1.61883544921875,0.98809814453125
1.62945556640625,0.9635009765625
1.636962890625,0.97412109375
1.6070556640625,0.92950439453125
1.5860595703125,0.9285888671875
1.62799072265625,0.921630859375
1.60382080078125,0.89862060546875
1.60491943359375,0.886962890625
1.6182861328125,0.85491943359375
END
BEGIN
0.0200653076171875,0.0744171142578125
0.0214729309082031,0.0767707824707031
0.0218658447265625,0.0785140991210938
0.0223197937011719,0.0799827575683594
0.0242538452148438,0.0836524963378906
0.0244216918945312,0.0853500366210938
0.0258102416992188,0.0860099792480469
0.0264854431152344,0.0887374877929688
0.027069091796875,0.0911827087402344
0.0287322998046875,0.0926742553710938
0.02972412109375,0.0957832336425781
0.0312347412109375,0.0980453491210938
0.0323829650878906,0.0993995666503906
0.0329246520996094,0.0998497009277344
0.0336036682128906,0.102989196777344
0.0350799560546875,0.104454040527344
0.0358924865722656,0.107189178466797
0.0368499755859375,0.108119964599609
0.0388641357421875,0.110424041748047
0.0398597717285156,0.112239837646484
0.0414848327636719,0.114185333251953
0.0431098937988281,0.11639404296875
0.0448379516601562,0.118038177490234
0.0439262390136719,0.118560791015625
0.0460891723632812,0.121383666992188
0.0463523864746094,0.124168395996094
0.0501022338867188,0.125099182128906
0.0513687133789062,0.126609802246094
0.0518264770507812,0.130058288574219
0.0547332763671875,0.130790710449219
0.0565948486328125,0.132339477539062
0.0559158325195312,0.1346435546875
0.05889892578125,0.135612487792969
0.0593490600585938,0.136444091796875
0.060272216796875,0.139671325683594
0.0616989135742188,0.139274597167969
0.0640640258789062,0.14276123046875
0.0665283203125,0.143829345703125
0.0683135986328125,0.1453857421875
0.0703201293945312,0.147453308105469
0.070037841796875,0.148773193359375
0.0713958740234375,0.151496887207031
0.0747909545898438,0.150733947753906
0.0750656127929688,0.154045104980469
0.0760269165039062,0.1552734375
0.0795516967773438,0.155723571777344
0.08050537109375,0.15863037109375
0.0834197998046875,0.161079406738281
0.0852813720703125,0.160987854003906
0.0860519409179688,0.162803649902344
0.088897705078125,0.162757873535156
0.0908203125,0.163894653320312
0.0926361083984375,0.166465759277344
0.0943756103515625,0.167343139648438
0.09637451171875,0.168914794921875
0.09820556640625,0.169242858886719
0.100006103515625,0.171188354492188
0.100959777832031,0.173271179199219
0.103591918945312,0.173858642578125
0.106246948242188,0.174911499023438
0.106681823730469,0.176795959472656
0.109756469726562,0.179039001464844
0.110916137695312,0.17864990234375
0.112983703613281,0.180313110351562
0.117660522460938,0.18231201171875
0.119087219238281,0.183982849121094
0.120040893554688,0.184471130371094
0.124267578125,0.184982299804688
0.124923706054688,0.185089111328125
0.1265869140625,0.186286926269531
0.128082275390625,0.188156127929688
0.131309509277344,0.189605712890625
0.132881164550781,0.190444946289062
0.136116027832031,0.192291259765625
0.138511657714844,0.191696166992188
0.139778137207031,0.194686889648438
0.14105224609375,0.195350646972656
0.143844604492188,0.194938659667969
0.145652770996094,0.196662902832031
0.148963928222656,0.196792602539062
0.149185180664062,0.198402404785156
0.153289794921875,0.199462890625
0.154869079589844,0.199935913085938
0.156997680664062,0.200103759765625
0.159950256347656,0.201980590820312
0.163703918457031,0.203117370605469
0.163848876953125,0.203651428222656
0.166435241699219,0.20416259765625
0.169670104980469,0.205955505371094
0.170921325683594,0.204666137695312
0.17376708984375,0.206779479980469
0.177101135253906,0.207878112792969
0.179161071777344,0.209709167480469
0.183746337890625,0.209579467773438
0.184638977050781,0.210182189941406
0.186393737792969,0.211265563964844
0.190353393554688,0.210578918457031
0.192146301269531,0.212257385253906
0.194046020507812,0.212364196777344
0.197319030761719,0.213333129882812
0.199859619140625,0.214576721191406
END
BEGIN
0.417556762695312,-0.165603637695312
0.41986083984375,-0.165756225585938
0.416961669921875,-0.162872314453125
0.414962768554688,-0.16339111328125
0.409149169921875,-0.16619873046875
0.410385131835938,-0.169448852539062
0.40740966796875,-0.171051025390625
0.406036376953125,-0.16912841796875
0.406845092773438,-0.171829223632812
0.405075073242188,-0.17303466796875
0.40179443359375,-0.175796508789062
0.401565551757812,-0.1759033203125
0.398635864257812,-0.176559448242188
0.39434814453125,-0.179092407226562
0.392776489257812,-0.1796875
0.391616821289062,-0.18206787109375
0.390777587890625,-0.183486938476562
0.389724731445312,-0.185882568359375
0.387985229492188,-0.185104370117188
0.386138916015625,-0.18951416015625
0.385787963867188,-0.189315795898438
0.38433837890625,-0.19207763671875
0.379745483398438,-0.194488525390625
0.378707885742188,-0.1964111328125
0.376022338867188,-0.197250366210938
0.373870849609375,-0.198516845703125
0.37030029296875,-0.19940185546875
0.36749267578125,-0.1995849609375
0.3656005859375,-0.203216552734375
0.361236572265625,-0.202682495117188
0.362106323242188,-0.203140258789062
0.36041259765625,-0.2083740234375
0.353897094726562,-0.20513916015625
0.356536865234375,-0.20849609375
0.35577392578125,-0.209716796875
0.350906372070312,-0.213134765625
0.350372314453125,-0.215118408203125
0.34442138671875,-0.217437744140625
0.342147827148438,-0.216751098632812
0.339202880859375,-0.216552734375
0.334671020507812,-0.21923828125
0.334976196289062,-0.219589233398438
0.32989501953125,-0.220001220703125
0.329879760742188,-0.221847534179688
0.330123901367188,-0.221481323242188
0.324951171875,-0.2232666015625
0.32183837890625,-0.225784301757812
0.321060180664062,-0.22613525390625
0.318740844726562,-0.227615356445312
0.315017700195312,-0.227462768554688
0.311676025390625,-0.23101806640625
0.308517456054688,-0.227066040039062
0.307952880859375,-0.231857299804688
0.304443359375,-0.232940673828125
0.299880981445312,-0.233322143554688
0.296310424804688,-0.235504150390625
0.293838500976562,-0.23431396484375
0.292831420898438,-0.236251831054688
0.293289184570312,-0.238021850585938
0.290847778320312,-0.238616943359375
0.285629272460938,-0.23870849609375
0.283157348632812,-0.238052368164062
0.279556274414062,-0.242095947265625
0.277511596679688,-0.24017333984375
0.273223876953125,-0.244247436523438
0.269180297851562,-0.245834350585938
0.269256591796875,-0.24652099609375
0.265731811523438,-0.24188232421875
0.263656616210938,-0.245895385742188
0.259002685546875,-0.24371337890625
0.258438110351562,-0.245559692382812
0.253158569335938,-0.246490478515625
0.250625610351562,-0.2437744140625
0.247421264648438,-0.248260498046875
0.244293212890625,-0.244949340820312
0.239555358886719,-0.248680114746094
0.239814758300781,-0.246986389160156
0.235588073730469,-0.247360229492188
0.233551025390625,-0.249267578125
0.23046875,-0.24676513671875
0.225387573242188,-0.2518310546875
0.2236328125,-0.250106811523438
0.219413757324219,-0.2491455078125
0.215568542480469,-0.248970031738281
0.212295532226562,-0.246040344238281
0.210227966308594,-0.246742248535156
0.207839965820312,-0.245025634765625
0.204742431640625,-0.24591064453125
0.19854736328125,-0.247055053710938
0.198432922363281,-0.24713134765625
0.192153930664062,-0.245445251464844
0.191246032714844,-0.246681213378906
0.18914794921875,-0.245712280273438
0.190048217773438,-0.255355834960938
0.179359436035156,-0.244758605957031
0.176925659179688,-0.243331909179688
0.169563293457031,-0.240242004394531
0.167198181152344,-0.23883056640625
0.1669921875,-0.235420227050781
0.164268493652344,-0.231842041015625
0.163780212402344,-0.2313232421875
END