CITIFILE A.01.01
COMMENT Dataset Name: /BFR91/BIAS5V5mA
COMMENT Modified: 14-Nov-94 16:13:33
NAME DATAvsFREQ
COMMENT #MDS DATATYPE SP

COMMENT #MDS VARTABLE FREQUENCIES
VAR FREQ MAG 101

DATA S[1,1] RI
DATA S[2,1] RI
DATA S[1,2] RI
DATA S[2,2] RI

SEG_LIST_BEGIN
SEG 500000000 2000000000 101
SEG_LIST_END

BEGIN
-0.0917739868164062,-0.215744018554688
-0.0963134765625,-0.198051452636719
-0.103614807128906,-0.196205139160156
-0.104011535644531,-0.174697875976562
-0.112701416015625,-0.174049377441406
-0.111114501953125,-0.156867980957031
-0.118217468261719,-0.155136108398438
-0.1162109375,-0.135246276855469
-0.121139526367188,-0.130828857421875
-0.1251220703125,-0.123130798339844
-0.121112823486328,-0.104507446289062
-0.126899719238281,-0.101058959960938
-0.127830505371094,-0.0930709838867188
-0.133872985839844,-0.0889129638671875
-0.126724243164062,-0.0724945068359375
-0.132438659667969,-0.0702972412109375
-0.132568359375,-0.0612640380859375
-0.130889892578125,-0.0494613647460938
-0.137420654296875,-0.0501022338867188
-0.135398864746094,-0.0382461547851562
-0.1353759765625,-0.0335464477539062
-0.140357971191406,-0.0296783447265625
-0.133506774902344,-0.0179290771484375
-0.138374328613281,-0.014434814453125
-0.139556884765625,-0.0062408447265625
-0.133499145507812,-0.00043487548828125
-0.139381408691406,0.00327301025390625
-0.135650634765625,0.011444091796875
-0.139175415039062,0.0175628662109375
-0.142745971679688,0.0224151611328125
-0.13262939453125,0.0330352783203125
-0.138198852539062,0.0359344482421875
-0.13525390625,0.0429763793945312
-0.132987976074219,0.0490951538085938
-0.140220642089844,0.0469207763671875
-0.132171630859375,0.0575408935546875
-0.134124755859375,0.0598602294921875
-0.137039184570312,0.066497802734375
-0.129112243652344,0.0747528076171875
-0.134193420410156,0.0785064697265625
-0.129600524902344,0.084197998046875
-0.127197265625,0.087127685546875
-0.132972717285156,0.09344482421875
-0.124759674072266,0.0978240966796875
-0.126289367675781,0.1025390625
-0.130256652832031,0.107513427734375
-0.120151519775391,0.113391876220703
-0.127395629882812,0.115081787109375
-0.118728637695312,0.119163513183594
-0.122180938720703,0.124301910400391
-0.120925903320312,0.128349304199219
-0.117103576660156,0.130149841308594
-0.121498107910156,0.135955810546875
-0.115333557128906,0.141960144042969
-0.11285400390625,0.145904541015625
-0.1163330078125,0.148155212402344
-0.106910705566406,0.154464721679688
-0.109771728515625,0.157920837402344
-0.105972290039062,0.159774780273438
-0.103935241699219,0.164222717285156
-0.109291076660156,0.166496276855469
-0.101005554199219,0.171371459960938
-0.10211181640625,0.177467346191406
-0.103897094726562,0.181221008300781
-0.0964126586914062,0.186653137207031
-0.101776123046875,0.190567016601562
-0.0937347412109375,0.192764282226562
-0.0953445434570312,0.196823120117188
-0.0953750610351562,0.198829650878906
-0.088348388671875,0.204078674316406
-0.0902175903320312,0.209266662597656
-0.0854949951171875,0.21099853515625
-0.0837631225585938,0.212692260742188
-0.0862579345703125,0.221534729003906
-0.0787200927734375,0.217056274414062
-0.0806503295898438,0.225624084472656
-0.0812759399414062,0.229621887207031
-0.0733413696289062,0.2294921875
-0.0756759643554688,0.235542297363281
-0.070281982421875,0.235298156738281
-0.0731124877929688,0.239013671875
-0.072113037109375,0.243209838867188
-0.0652236938476562,0.244468688964844
-0.06671142578125,0.24859619140625
-0.0646743774414062,0.248199462890625
-0.06201171875,0.25146484375
-0.065216064453125,0.258193969726562
-0.0577392578125,0.257522583007812
-0.06256103515625,0.261856079101562
-0.0585479736328125,0.263351440429688
-0.058349609375,0.264907836914062
-0.0594940185546875,0.272048950195312
-0.0583953857421875,0.26837158203125
-0.0582275390625,0.288360595703125
-0.056365966796875,0.27972412109375
-0.0544281005859375,0.271804809570312
-0.0568389892578125,0.27655029296875
-0.05767822265625,0.276565551757812
-0.057586669921875,0.2794189453125
-0.0579376220703125,0.2821044921875
-0.0565185546875,0.27960205078125
END
BEGIN
0.002685546875,4.980712890625
0.0400390625,4.7724609375
0.1552734375,4.73046875
0.209716796875,4.529052734375
0.3076171875,4.48828125
0.348388671875,4.30859375
0.433837890625,4.28515625
0.47705078125,4.118896484375
0.550048828125,4.083740234375
0.578857421875,3.96337890625
0.628662109375,3.873046875
0.6702880859375,3.7459716796875
0.7276611328125,3.7117919921875
0.757568359375,3.6146240234375
0.79541015625,3.523681640625
0.85009765625,3.4688720703125
0.857421875,3.376220703125
0.893798828125,3.3271484375
0.9287109375,3.277099609375
0.942626953125,3.156982421875
0.9945068359375,3.12451171875
0.9974365234375,3.05126953125
1.014892578125,2.9852294921875
1.0498046875,2.9525146484375
1.0452880859375,2.8399658203125
1.08203125,2.79638671875
1.0811767578125,2.7843017578125
1.0953369140625,2.6834716796875
1.140869140625,2.6573486328125
1.1248779296875,2.5911865234375
1.1556396484375,2.5477294921875
1.180419921875,2.52734375
1.1875,2.4249267578125
1.186767578125,2.4144287109375
1.2127685546875,2.357177734375
1.203857421875,2.27978515625
1.2425537109375,2.28173828125
1.2593994140625,2.235107421875
1.24658203125,2.189453125
1.2652587890625,2.1640625
1.2750244140625,2.107666015625
1.275634765625,2.085205078125
1.2830810546875,2.0396728515625
1.27935791015625,1.98748779296875
1.3096923828125,1.9693603515625
1.2784423828125,1.93878173828125
1.30108642578125,1.89935302734375
1.3345947265625,1.8609619140625
1.3154296875,1.81060791015625
1.3172607421875,1.82861328125
1.3104248046875,1.75604248046875
1.318115234375,1.74090576171875
1.3563232421875,1.72479248046875
1.33624267578125,1.65484619140625
1.36102294921875,1.626953125
1.3629150390625,1.6287841796875
1.33575439453125,1.572265625
1.3675537109375,1.56378173828125
1.3548583984375,1.5228271484375
1.3619384765625,1.505615234375
1.36590576171875,1.482177734375
1.35992431640625,1.43994140625
1.3775634765625,1.42840576171875
1.36895751953125,1.39715576171875
1.37030029296875,1.36871337890625
1.402099609375,1.36248779296875
1.35504150390625,1.330810546875
1.3912353515625,1.30621337890625
1.3798828125,1.27783203125
1.38092041015625,1.26409912109375
1.37841796875,1.2281494140625
1.36297607421875,1.2015380859375
1.38116455078125,1.1962890625
1.38330078125,1.17529296875
1.38623046875,1.1488037109375
1.38836669921875,1.1278076171875
1.37493896484375,1.10284423828125
1.375732421875,1.0750732421875
1.40032958984375,1.0545654296875
1.368896484375,1.04852294921875
1.3935546875,1.03851318359375
1.38543701171875,1.00177001953125
1.37957763671875,0.98162841796875
1.39935302734375,0.98150634765625
1.37060546875,0.9478759765625
1.38739013671875,0.94671630859375
1.3814697265625,0.92388916015625
1.38323974609375,0.89520263671875
1.39410400390625,0.892333984375
1.36907958984375,0.8587646484375
1.4007568359375,0.842529296875
1.38836669921875,0.8345947265625
1.37396240234375,0.82318115234375
1.39422607421875,0.81524658203125
1.3798828125,0.78302001953125
1.38690185546875,0.776611328125
1.3900146484375,0.76336669921875
1.36981201171875,0.7528076171875
1.39398193359375,0.73382568359375
1.3824462890625,0.72198486328125
1.38323974609375,0.699462890625
END
BEGIN
0.0364494323730469,0.0658950805664062
0.0385894775390625,0.0682792663574219
0.0373420715332031,0.0683822631835938
0.0401725769042969,0.0701675415039062
0.0394935607910156,0.0719528198242188
0.0416450500488281,0.0728721618652344
0.03985595703125,0.0758399963378906
0.0410385131835938,0.0752410888671875
0.0414161682128906,0.0781288146972656
0.04296875,0.0790367126464844
0.0431137084960938,0.0792427062988281
0.0443305969238281,0.0819816589355469
0.0444526672363281,0.0838470458984375
0.0462188720703125,0.0855216979980469
0.0468635559082031,0.0867691040039062
0.0457763671875,0.0884437561035156
0.0484886169433594,0.0895347595214844
0.0485649108886719,0.0910224914550781
0.04962158203125,0.0920944213867188
0.0517578125,0.0933647155761719
0.050994873046875,0.095916748046875
0.0529899597167969,0.0980415344238281
0.0535888671875,0.0986175537109375
0.0547676086425781,0.0999946594238281
0.0577964782714844,0.100948333740234
0.054473876953125,0.102787017822266
0.0558395385742188,0.104419708251953
0.059600830078125,0.106147766113281
0.0577163696289062,0.107982635498047
0.0597572326660156,0.109176635742188
0.0630340576171875,0.110702514648438
0.0622215270996094,0.112083435058594
0.0649185180664062,0.111610412597656
0.0645217895507812,0.114383697509766
0.0652351379394531,0.116344451904297
0.0660324096679688,0.116645812988281
0.0663032531738281,0.119224548339844
0.0694618225097656,0.119583129882812
0.0687217712402344,0.120624542236328
0.0704421997070312,0.123447418212891
0.0725631713867188,0.124130249023438
0.074005126953125,0.125045776367188
0.0742301940917969,0.124614715576172
0.0751876831054688,0.127647399902344
0.0761795043945312,0.129837036132812
0.0763626098632812,0.131553649902344
0.0805282592773438,0.132347106933594
0.081024169921875,0.135223388671875
0.0812301635742188,0.135612487792969
0.0815582275390625,0.138130187988281
0.0842056274414062,0.13751220703125
0.0842742919921875,0.138778686523438
0.086669921875,0.141632080078125
0.0873336791992188,0.142494201660156
0.08941650390625,0.144309997558594
0.0901565551757812,0.143112182617188
0.0913619995117188,0.145294189453125
0.0931472778320312,0.147811889648438
0.095428466796875,0.147422790527344
0.097015380859375,0.150558471679688
0.0968093872070312,0.151222229003906
0.0976791381835938,0.152076721191406
0.10076904296875,0.153205871582031
0.101860046386719,0.153923034667969
0.105201721191406,0.156990051269531
0.105674743652344,0.158905029296875
0.104827880859375,0.158912658691406
0.108856201171875,0.161109924316406
0.109931945800781,0.160926818847656
0.111740112304688,0.1614990234375
0.113922119140625,0.164955139160156
0.112480163574219,0.165023803710938
0.115638732910156,0.167694091796875
0.117584228515625,0.167076110839844
0.119804382324219,0.167724609375
0.121223449707031,0.172256469726562
0.121574401855469,0.170051574707031
0.125236511230469,0.172286987304688
0.126373291015625,0.174346923828125
0.125190734863281,0.174606323242188
0.129501342773438,0.17669677734375
0.130691528320312,0.177757263183594
0.132011413574219,0.178970336914062
0.134490966796875,0.181861877441406
0.135513305664062,0.180984497070312
0.138214111328125,0.182502746582031
0.139411926269531,0.184165954589844
0.141525268554688,0.183395385742188
0.143989562988281,0.186531066894531
0.145118713378906,0.186790466308594
0.149147033691406,0.187889099121094
0.14971923828125,0.190078735351562
0.149375915527344,0.190872192382812
0.153556823730469,0.193023681640625
0.155632019042969,0.192558288574219
0.156990051269531,0.194038391113281
0.159751892089844,0.19598388671875
0.162109375,0.196907043457031
0.16510009765625,0.198753356933594
0.1649169921875,0.200584411621094
0.169349670410156,0.202301025390625
END
BEGIN
0.5301513671875,-0.255462646484375
0.523956298828125,-0.251617431640625
0.5252685546875,-0.251312255859375
0.518280029296875,-0.25189208984375
0.515869140625,-0.252532958984375
0.513519287109375,-0.254364013671875
0.51025390625,-0.2548828125
0.5081787109375,-0.253570556640625
0.510223388671875,-0.254852294921875
0.4998779296875,-0.2506103515625
0.50201416015625,-0.25634765625
0.496261596679688,-0.251785278320312
0.498138427734375,-0.258941650390625
0.485855102539062,-0.254974365234375
0.4862060546875,-0.258407592773438
0.48919677734375,-0.261199951171875
0.481689453125,-0.256317138671875
0.487579345703125,-0.263778686523438
0.478988647460938,-0.258209228515625
0.47576904296875,-0.262939453125
0.479400634765625,-0.266983032226562
0.473220825195312,-0.262847900390625
0.471115112304688,-0.2694091796875
0.466629028320312,-0.265640258789062
0.4630126953125,-0.266769409179688
0.465240478515625,-0.272994995117188
0.459625244140625,-0.268356323242188
0.457275390625,-0.272674560546875
0.456893920898438,-0.276885986328125
0.449432373046875,-0.269027709960938
0.45257568359375,-0.278289794921875
0.4468994140625,-0.281661987304688
0.439620971679688,-0.279815673828125
0.443511962890625,-0.282394409179688
0.44085693359375,-0.280197143554688
0.4403076171875,-0.283172607421875
0.438568115234375,-0.286651611328125
0.429153442382812,-0.28466796875
0.428848266601562,-0.289581298828125
0.426071166992188,-0.291748046875
0.421417236328125,-0.28778076171875
0.423538208007812,-0.291427612304688
0.415679931640625,-0.292160034179688
0.417236328125,-0.295059204101562
0.417800903320312,-0.29278564453125
0.4146728515625,-0.293594360351562
0.412506103515625,-0.302993774414062
0.403579711914062,-0.300369262695312
0.402938842773438,-0.300582885742188
0.40032958984375,-0.306991577148438
0.393661499023438,-0.299209594726562
0.39276123046875,-0.307464599609375
0.392044067382812,-0.307296752929688
0.386978149414062,-0.30572509765625
0.387710571289062,-0.310958862304688
0.379608154296875,-0.3082275390625
0.3800048828125,-0.312469482421875
0.377883911132812,-0.311782836914062
0.37322998046875,-0.311813354492188
0.375381469726562,-0.318634033203125
0.367141723632812,-0.315750122070312
0.365585327148438,-0.31854248046875
0.364410400390625,-0.320281982421875
0.355422973632812,-0.317626953125
0.36077880859375,-0.3270263671875
0.352020263671875,-0.327194213867188
0.350051879882812,-0.326766967773438
0.34906005859375,-0.327392578125
0.343353271484375,-0.326416015625
0.34326171875,-0.327362060546875
0.338714599609375,-0.330810546875
0.33685302734375,-0.327590942382812
0.335601806640625,-0.333740234375
0.327743530273438,-0.331253051757812
0.327102661132812,-0.3359375
0.321868896484375,-0.337127685546875
0.319351196289062,-0.332672119140625
0.315719604492188,-0.340652465820312
0.311248779296875,-0.339401245117188
0.310089111328125,-0.33929443359375
0.305587768554688,-0.343154907226562
0.298629760742188,-0.3394775390625
0.300674438476562,-0.346115112304688
0.293502807617188,-0.345565795898438
0.290878295898438,-0.343521118164062
0.28692626953125,-0.34759521484375
0.279953002929688,-0.341079711914062
0.281097412109375,-0.346023559570312
0.27435302734375,-0.348037719726562
0.270462036132812,-0.34698486328125
0.266311645507812,-0.351104736328125
0.259033203125,-0.346221923828125
0.258346557617188,-0.351287841796875
0.263320922851562,-0.367416381835938
0.248001098632812,-0.346420288085938
0.247833251953125,-0.356216430664062
0.237564086914062,-0.34979248046875
0.234283447265625,-0.348236083984375
0.232330322265625,-0.350311279296875
0.221755981445312,-0.339111328125
0.225173950195312,-0.345199584960938
END