CITIFILE A.01.01
COMMENT Dataset Name: /BFR91/BIAS10V10mA
COMMENT Modified: 14-Nov-94 16:30:43
NAME DATAvsFREQ
COMMENT #MDS DATATYPE SP

COMMENT #MDS VARTABLE FREQUENCIES
VAR FREQ MAG 101

DATA S[1,1] RI
DATA S[2,1] RI
DATA S[1,2] RI
DATA S[2,2] RI

SEG_LIST_BEGIN
SEG 500000000 2000000000 101
SEG_LIST_END

BEGIN
-0.0133285522460938,-0.114437103271484
-0.0172576904296875,-0.108062744140625
-0.0207748413085938,-0.102149963378906
-0.0212631225585938,-0.0942726135253906
-0.024505615234375,-0.0854339599609375
-0.02392578125,-0.0839767456054688
-0.0254898071289062,-0.0764732360839844
-0.0276985168457031,-0.0733222961425781
-0.0287246704101562,-0.0681877136230469
-0.0295524597167969,-0.059112548828125
-0.0318584442138672,-0.0543766021728516
-0.0316429138183594,-0.0494384765625
-0.0325164794921875,-0.0455741882324219
-0.0362224578857422,-0.0398883819580078
-0.03363037109375,-0.0333843231201172
-0.0361671447753906,-0.0307865142822266
-0.0337982177734375,-0.0242767333984375
-0.0352325439453125,-0.0185146331787109
-0.0371170043945312,-0.0182170867919922
-0.0367603302001953,-0.0107173919677734
-0.0382270812988281,-0.00777626037597656
-0.0386505126953125,-0.0041961669921875
-0.037445068359375,0.000408172607421875
-0.0384082794189453,0.00520133972167969
-0.0404129028320312,0.00740623474121094
-0.0393314361572266,0.0128383636474609
-0.0410594940185547,0.0155887603759766
-0.0381622314453125,0.0182838439941406
-0.0398025512695312,0.0235424041748047
-0.0440025329589844,0.0251369476318359
-0.0396308898925781,0.0321140289306641
-0.0421485900878906,0.0339622497558594
-0.0417194366455078,0.0397205352783203
-0.0406227111816406,0.0431137084960938
-0.04345703125,0.0446128845214844
-0.0399875640869141,0.0472393035888672
-0.0405788421630859,0.0502910614013672
-0.0423469543457031,0.0526294708251953
-0.0401840209960938,0.0582447052001953
-0.0441055297851562,0.0629730224609375
-0.0391197204589844,0.0648155212402344
-0.0412139892578125,0.0653724670410156
-0.040740966796875,0.07012939453125
-0.0379905700683594,0.0732688903808594
-0.0410804748535156,0.0772819519042969
-0.0397148132324219,0.0804901123046875
-0.0355911254882812,0.0846595764160156
-0.0417366027832031,0.0859031677246094
-0.0370826721191406,0.0888099670410156
-0.0382156372070312,0.0909576416015625
-0.0374641418457031,0.0941200256347656
-0.0386734008789062,0.0951690673828125
-0.0387077331542969,0.096221923828125
-0.0368919372558594,0.104698181152344
-0.0354766845703125,0.105628967285156
-0.037628173828125,0.109081268310547
-0.0333900451660156,0.11126708984375
-0.0331344604492188,0.114219665527344
-0.0347518920898438,0.115394592285156
-0.0326080322265625,0.118324279785156
-0.0359992980957031,0.121467590332031
-0.0318603515625,0.126472473144531
-0.0333633422851562,0.129714965820312
-0.0350189208984375,0.131546020507812
-0.0299530029296875,0.137069702148438
-0.0318984985351562,0.135536193847656
-0.0301513671875,0.138999938964844
-0.0282135009765625,0.142578125
-0.028106689453125,0.144020080566406
-0.0264358520507812,0.148895263671875
-0.025848388671875,0.151931762695312
-0.0253372192382812,0.156044006347656
-0.0248870849609375,0.154045104980469
-0.025146484375,0.161109924316406
-0.0221405029296875,0.160293579101562
-0.022979736328125,0.163864135742188
-0.0249404907226562,0.167526245117188
-0.020416259765625,0.168205261230469
-0.02020263671875,0.170333862304688
-0.0193023681640625,0.174903869628906
-0.0197906494140625,0.175064086914062
-0.0192642211914062,0.17755126953125
-0.0169219970703125,0.1824951171875
-0.0149917602539062,0.182220458984375
-0.0172958374023438,0.185455322265625
-0.0177688598632812,0.186805725097656
-0.0160064697265625,0.190391540527344
-0.0176010131835938,0.192535400390625
-0.0164794921875,0.192054748535156
-0.015716552734375,0.198112487792969
-0.0178756713867188,0.196495056152344
-0.0161590576171875,0.200859069824219
-0.0190887451171875,0.203651428222656
-0.0169754028320312,0.214195251464844
-0.017791748046875,0.207672119140625
-0.0185089111328125,0.205711364746094
-0.0197296142578125,0.204986572265625
-0.0243453979492188,0.209640502929688
-0.02056884765625,0.209877014160156
-0.0218505859375,0.212379455566406
-0.0279541015625,0.214103698730469
END
BEGIN
0.36865234375,5.85205078125
0.4775390625,5.690185546875
0.508056640625,5.51904296875
0.634033203125,5.386962890625
0.64501953125,5.230224609375
0.71484375,5.088134765625
0.74072265625,4.92919921875
0.826171875,4.873779296875
0.8388671875,4.726806640625
0.890380859375,4.639892578125
0.946533203125,4.536865234375
0.976806640625,4.375732421875
1.012939453125,4.3046875
1.04248046875,4.194580078125
1.049560546875,4.087890625
1.101318359375,4.010986328125
1.1146240234375,3.8931884765625
1.1446533203125,3.8458251953125
1.1688232421875,3.7734375
1.1885986328125,3.65869140625
1.2154541015625,3.6046142578125
1.21630859375,3.52978515625
1.25537109375,3.4482421875
1.276611328125,3.3973388671875
1.250244140625,3.320068359375
1.275146484375,3.2421875
1.2845458984375,3.1988525390625
1.2791748046875,3.132080078125
1.3602294921875,3.087890625
1.3646240234375,3.02392578125
1.35302734375,2.9281005859375
1.382080078125,2.9066162109375
1.3858642578125,2.82421875
1.3748779296875,2.7994384765625
1.3968505859375,2.7359619140625
1.41064453125,2.6632080078125
1.4107666015625,2.6429443359375
1.4219970703125,2.59765625
1.4310302734375,2.5474853515625
1.4339599609375,2.5150146484375
1.422119140625,2.46435546875
1.4298095703125,2.4091796875
1.4556884765625,2.3851318359375
1.471435546875,2.3436279296875
1.47412109375,2.290283203125
1.44970703125,2.2513427734375
1.4710693359375,2.218017578125
1.49365234375,2.1942138671875
1.4781494140625,2.12451171875
1.501953125,2.0926513671875
1.5089111328125,2.048828125
1.4818115234375,2.051025390625
1.5062255859375,2.0146484375
1.493408203125,1.963623046875
1.50238037109375,1.93670654296875
1.52001953125,1.89849853515625
1.5382080078125,1.87054443359375
1.51666259765625,1.846923828125
1.5172119140625,1.801513671875
1.52423095703125,1.7808837890625
1.51507568359375,1.75958251953125
1.51397705078125,1.72540283203125
1.53582763671875,1.6907958984375
1.51983642578125,1.65789794921875
1.5419921875,1.6361083984375
1.528076171875,1.61883544921875
1.55218505859375,1.58978271484375
1.52386474609375,1.54443359375
1.54071044921875,1.52142333984375
1.52911376953125,1.50592041015625
1.51953125,1.492919921875
1.53021240234375,1.4564208984375
1.5302734375,1.4093017578125
1.55438232421875,1.41046142578125
1.53448486328125,1.37664794921875
1.52545166015625,1.34588623046875
1.5521240234375,1.321044921875
1.53887939453125,1.31341552734375
1.54595947265625,1.28765869140625
1.5528564453125,1.26800537109375
1.53668212890625,1.2197265625
1.5430908203125,1.22943115234375
1.5325927734375,1.19036865234375
1.54718017578125,1.19500732421875
1.53662109375,1.179443359375
1.51300048828125,1.1507568359375
1.5440673828125,1.1201171875
1.5469970703125,1.10150146484375
1.5299072265625,1.10052490234375
1.55096435546875,1.0694580078125
1.544677734375,1.0364990234375
1.56427001953125,1.0185546875
1.5555419921875,1.0357666015625
1.5570068359375,0.982177734375
1.5384521484375,0.98492431640625
1.562255859375,0.968505859375
1.5355224609375,0.9654541015625
1.54022216796875,0.95098876953125
1.55731201171875,0.9234619140625
1.5399169921875,0.92266845703125
1.54150390625,0.89996337890625
END
BEGIN
0.0246810913085938,0.0659828186035156
0.0239219665527344,0.0677909851074219
0.0263175964355469,0.0687942504882812
0.0264129638671875,0.0704307556152344
0.0266227722167969,0.0729904174804688
0.0274696350097656,0.0748023986816406
0.0284461975097656,0.0760841369628906
0.0285568237304688,0.0779342651367188
0.0307273864746094,0.0797958374023438
0.0313758850097656,0.0808601379394531
0.0325584411621094,0.0833473205566406
0.0325469970703125,0.0846328735351562
0.034423828125,0.0870819091796875
0.0343894958496094,0.0878715515136719
0.0360946655273438,0.0892448425292969
0.0365486145019531,0.091094970703125
0.0363273620605469,0.0923614501953125
0.0370597839355469,0.0937423706054688
0.0386924743652344,0.0959548950195312
0.0396957397460938,0.0974159240722656
0.0410995483398438,0.0999908447265625
0.0410728454589844,0.101406097412109
0.0425262451171875,0.101715087890625
0.0437507629394531,0.105178833007812
0.0442428588867188,0.104965209960938
0.0469474792480469,0.108737945556641
0.0484504699707031,0.108978271484375
0.048828125,0.109287261962891
0.0497894287109375,0.114955902099609
0.0523490905761719,0.112850189208984
0.05224609375,0.115058898925781
0.0528793334960938,0.117908477783203
0.0530166625976562,0.118167877197266
0.0557670593261719,0.119346618652344
0.0560111999511719,0.12139892578125
0.0585861206054688,0.121482849121094
0.0583457946777344,0.124370574951172
0.0609970092773438,0.125274658203125
0.0613327026367188,0.127204895019531
0.0645217895507812,0.129600524902344
0.0631942749023438,0.129592895507812
0.066070556640625,0.131881713867188
0.0675506591796875,0.133041381835938
0.0671844482421875,0.134407043457031
0.0688247680664062,0.13702392578125
0.071319580078125,0.136756896972656
0.0721511840820312,0.138755798339844
0.073089599609375,0.140396118164062
0.0760726928710938,0.142013549804688
0.0760726928710938,0.143623352050781
0.0761184692382812,0.145370483398438
0.0796585083007812,0.144973754882812
0.0823516845703125,0.148353576660156
0.0818939208984375,0.147720336914062
0.0838699340820312,0.149070739746094
0.084991455078125,0.151641845703125
0.086944580078125,0.151924133300781
0.087646484375,0.153297424316406
0.09027099609375,0.1552734375
0.0908126831054688,0.156723022460938
0.0925674438476562,0.157859802246094
0.0942535400390625,0.159523010253906
0.0958404541015625,0.1607666015625
0.0974044799804688,0.161270141601562
0.09967041015625,0.162605285644531
0.100914001464844,0.164970397949219
0.100570678710938,0.164756774902344
0.105812072753906,0.165786743164062
0.106163024902344,0.167587280273438
0.107566833496094,0.167510986328125
0.109710693359375,0.16851806640625
0.111190795898438,0.17205810546875
0.11273193359375,0.170082092285156
0.115509033203125,0.173835754394531
0.115753173828125,0.175178527832031
0.116592407226562,0.176841735839844
0.120124816894531,0.176345825195312
0.119834899902344,0.177398681640625
0.123786926269531,0.17889404296875
0.125091552734375,0.178207397460938
0.126876831054688,0.179946899414062
0.129753112792969,0.182113647460938
0.130149841308594,0.181999206542969
0.13189697265625,0.183418273925781
0.134368896484375,0.184890747070312
0.136444091796875,0.185890197753906
0.137092590332031,0.187728881835938
0.138336181640625,0.189422607421875
0.141548156738281,0.190391540527344
0.145256042480469,0.189949035644531
0.147285461425781,0.19097900390625
0.148811340332031,0.192672729492188
0.149269104003906,0.194625854492188
0.152603149414062,0.195068359375
0.155349731445312,0.195632934570312
0.155479431152344,0.197357177734375
0.158195495605469,0.198448181152344
0.161399841308594,0.198738098144531
0.16107177734375,0.200790405273438
0.16632080078125,0.202217102050781
0.169624328613281,0.203239440917969
END
BEGIN
0.50933837890625,-0.2076416015625
0.507537841796875,-0.2064208984375
0.5054931640625,-0.20635986328125
0.503509521484375,-0.207794189453125
0.498977661132812,-0.206787109375
0.49957275390625,-0.211029052734375
0.494674682617188,-0.208526611328125
0.496551513671875,-0.210800170898438
0.491134643554688,-0.20947265625
0.493804931640625,-0.212387084960938
0.489410400390625,-0.211868286132812
0.4864501953125,-0.212661743164062
0.486373901367188,-0.21527099609375
0.477951049804688,-0.21575927734375
0.477386474609375,-0.217315673828125
0.476669311523438,-0.217666625976562
0.473556518554688,-0.2176513671875
0.4752197265625,-0.221939086914062
0.471282958984375,-0.220443725585938
0.4713134765625,-0.223968505859375
0.468597412109375,-0.228408813476562
0.469070434570312,-0.228851318359375
0.4664306640625,-0.229629516601562
0.46343994140625,-0.2255859375
0.461410522460938,-0.229385375976562
0.458236694335938,-0.23223876953125
0.454055786132812,-0.235107421875
0.453704833984375,-0.233871459960938
0.452377319335938,-0.238449096679688
0.448028564453125,-0.238143920898438
0.449798583984375,-0.241806030273438
0.4442138671875,-0.241943359375
0.439605712890625,-0.242889404296875
0.440628051757812,-0.247039794921875
0.441085815429688,-0.245010375976562
0.436065673828125,-0.249038696289062
0.436386108398438,-0.250991821289062
0.429229736328125,-0.250717163085938
0.430038452148438,-0.25341796875
0.423843383789062,-0.255020141601562
0.422531127929688,-0.255218505859375
0.421630859375,-0.257400512695312
0.416580200195312,-0.259735107421875
0.417282104492188,-0.26165771484375
0.417861938476562,-0.261184692382812
0.413360595703125,-0.258285522460938
0.410293579101562,-0.265625
0.4088134765625,-0.267471313476562
0.405654907226562,-0.267990112304688
0.402206420898438,-0.267227172851562
0.397994995117188,-0.267868041992188
0.39447021484375,-0.271743774414062
0.39666748046875,-0.274887084960938
0.3917236328125,-0.271392822265625
0.388565063476562,-0.274993896484375
0.383026123046875,-0.275588989257812
0.383163452148438,-0.276840209960938
0.382644653320312,-0.279281616210938
0.379501342773438,-0.280670166015625
0.378555297851562,-0.28253173828125
0.371490478515625,-0.284698486328125
0.371917724609375,-0.283981323242188
0.371505737304688,-0.286712646484375
0.36346435546875,-0.285415649414062
0.362640380859375,-0.288558959960938
0.3609619140625,-0.296218872070312
0.355972290039062,-0.290878295898438
0.35650634765625,-0.29217529296875
0.35052490234375,-0.295578002929688
0.34765625,-0.290069580078125
0.346466064453125,-0.294891357421875
0.341751098632812,-0.295013427734375
0.341049194335938,-0.294754028320312
0.334228515625,-0.299911499023438
0.334030151367188,-0.298934936523438
0.332412719726562,-0.301101684570312
0.329269409179688,-0.302276611328125
0.322219848632812,-0.30108642578125
0.322402954101562,-0.305572509765625
0.319122314453125,-0.301376342773438
0.31475830078125,-0.306320190429688
0.313140869140625,-0.305557250976562
0.308807373046875,-0.306488037109375
0.3043212890625,-0.310333251953125
0.301910400390625,-0.303924560546875
0.298721313476562,-0.307037353515625
0.29754638671875,-0.307266235351562
0.292831420898438,-0.307525634765625
0.288528442382812,-0.311492919921875
0.287155151367188,-0.311050415039062
0.281631469726562,-0.310806274414062
0.279342651367188,-0.312606811523438
0.27642822265625,-0.310928344726562
0.282852172851562,-0.326339721679688
0.2706298828125,-0.311492919921875
0.264236450195312,-0.311416625976562
0.258041381835938,-0.313552856445312
0.254364013671875,-0.307693481445312
0.252243041992188,-0.306396484375
0.248886108398438,-0.305419921875
0.247909545898438,-0.303726196289062
END