CITIFILE A.01.01
COMMENT Dataset Name: /BFR91/BIAS8V20mA
COMMENT Modified: 14-Nov-94 16:24:48
NAME DATAvsFREQ
COMMENT #MDS DATATYPE SP

COMMENT #MDS VARTABLE FREQUENCIES
VAR FREQ MAG 101

DATA S[1,1] RI
DATA S[2,1] RI
DATA S[1,2] RI
DATA S[2,2] RI

SEG_LIST_BEGIN
SEG 500000000 2000000000 101
SEG_LIST_END

BEGIN
0.00463485717773438,-0.0468959808349609
0.00201988220214844,-0.0425052642822266
0.000871658325195312,-0.0393943786621094
0.00158500671386719,-0.0327816009521484
-0.00119686126708984,-0.0286312103271484
-2.19345092773438E-05,-0.0266132354736328
-0.00376605987548828,-0.0232868194580078
-0.00334262847900391,-0.0201330184936523
-0.00246953964233398,-0.0153288841247559
-0.00427436828613281,-0.0120301246643066
-0.00475955009460449,-0.00764250755310059
-0.00609803199768066,-0.00322914123535156
-0.00586771965026855,-0.00253725051879883
-0.00728535652160645,0.00333309173583984
-0.00475096702575684,0.00478625297546387
-0.00622701644897461,0.00865793228149414
-0.00660276412963867,0.0142221450805664
-0.00892543792724609,0.0168838500976562
-0.00837326049804688,0.0188989639282227
-0.00926589965820312,0.0228977203369141
-0.0102920532226562,0.0240192413330078
-0.00954055786132812,0.0263576507568359
-0.0106782913208008,0.0297698974609375
-0.010589599609375,0.0338115692138672
-0.0103206634521484,0.0368328094482422
-0.0112419128417969,0.0386447906494141
-0.0125846862792969,0.0410842895507812
-0.0120391845703125,0.0432891845703125
-0.0131721496582031,0.0475215911865234
-0.0136280059814453,0.0505962371826172
-0.0130596160888672,0.0531845092773438
-0.0143299102783203,0.0556087493896484
-0.0128993988037109,0.0579891204833984
-0.0144977569580078,0.0604934692382812
-0.0134067535400391,0.0618953704833984
-0.0146293640136719,0.065093994140625
-0.0144386291503906,0.0662765502929688
-0.0162506103515625,0.0686378479003906
-0.0142364501953125,0.0730514526367188
-0.0150070190429688,0.0757675170898438
-0.0146369934082031,0.08062744140625
-0.0154266357421875,0.0783615112304688
-0.0132942199707031,0.0830535888671875
-0.0131301879882812,0.0856170654296875
-0.0132827758789062,0.0872802734375
-0.0143814086914062,0.0901260375976562
-0.01348876953125,0.0925064086914062
-0.01513671875,0.0934066772460938
-0.0144577026367188,0.0962753295898438
-0.0145301818847656,0.0983161926269531
-0.0142707824707031,0.100749969482422
-0.0140380859375,0.100757598876953
-0.0154838562011719,0.1036376953125
-0.0133323669433594,0.110599517822266
-0.0134162902832031,0.111587524414062
-0.0121612548828125,0.113777160644531
-0.0122299194335938,0.115940093994141
-0.0102653503417969,0.117904663085938
-0.0114326477050781,0.120014190673828
-0.0112457275390625,0.121616363525391
-0.0127944946289062,0.122940063476562
-0.0117721557617188,0.128555297851562
-0.0104446411132812,0.130790710449219
-0.0124053955078125,0.133842468261719
-0.012603759765625,0.137039184570312
-0.0121383666992188,0.137992858886719
-0.0106277465820312,0.14044189453125
-0.0119094848632812,0.143524169921875
-0.00750732421875,0.144126892089844
-0.00838470458984375,0.148681640625
-0.0103225708007812,0.152938842773438
-0.00771331787109375,0.153396606445312
-0.009368896484375,0.152183532714844
-0.00615692138671875,0.158538818359375
-0.006378173828125,0.158897399902344
-0.00699615478515625,0.162994384765625
-0.00655364990234375,0.166114807128906
-0.0029296875,0.165908813476562
-0.00516510009765625,0.170387268066406
-0.0035400390625,0.170356750488281
-0.00604248046875,0.171783447265625
-0.0035400390625,0.175865173339844
-0.0018310546875,0.179862976074219
0.00040435791015625,0.179100036621094
-0.00211334228515625,0.180191040039062
-0.00469970703125,0.185447692871094
-0.0034027099609375,0.186149597167969
-0.0023193359375,0.189361572265625
-0.00582122802734375,0.188980102539062
-0.0027313232421875,0.192657470703125
-0.00553131103515625,0.194015502929688
-0.0062408447265625,0.197563171386719
-0.00691986083984375,0.1990966796875
-0.00373077392578125,0.210655212402344
-0.0067596435546875,0.204460144042969
-0.00986480712890625,0.201713562011719
-0.01025390625,0.200752258300781
-0.0128402709960938,0.203987121582031
-0.0112380981445312,0.205970764160156
-0.0133590698242188,0.207145690917969
-0.01654052734375,0.207839965820312
END
BEGIN
0.828125,6.193603515625
0.882080078125,6.0029296875
0.9052734375,5.829345703125
0.967529296875,5.66845703125
1.011962890625,5.52294921875
1.04052734375,5.36083984375
1.0693359375,5.192626953125
1.140380859375,5.08203125
1.153564453125,4.94970703125
1.18994140625,4.836669921875
1.22314453125,4.70166015625
1.23388671875,4.605224609375
1.274169921875,4.494873046875
1.266357421875,4.37841796875
1.31005859375,4.271240234375
1.3271484375,4.172119140625
1.31298828125,4.07421875
1.3634033203125,3.9967041015625
1.3546142578125,3.93701171875
1.40087890625,3.8328857421875
1.3768310546875,3.7652587890625
1.388671875,3.6761474609375
1.4246826171875,3.6197509765625
1.422607421875,3.5218505859375
1.4515380859375,3.4759521484375
1.4583740234375,3.3970947265625
1.432861328125,3.3016357421875
1.443115234375,3.243408203125
1.511962890625,3.2215576171875
1.48388671875,3.1378173828125
1.5023193359375,3.06884765625
1.4981689453125,3.013671875
1.5135498046875,2.9610595703125
1.5103759765625,2.9248046875
1.536376953125,2.8631591796875
1.5565185546875,2.7930908203125
1.532958984375,2.728515625
1.5819091796875,2.7109375
1.56640625,2.6455078125
1.58154296875,2.619873046875
1.6060791015625,2.54931640625
1.5518798828125,2.5283203125
1.5802001953125,2.4422607421875
1.560302734375,2.4044189453125
1.5806884765625,2.3814697265625
1.585693359375,2.3271484375
1.5899658203125,2.30078125
1.5782470703125,2.2657470703125
1.624267578125,2.212158203125
1.580322265625,2.2022705078125
1.5843505859375,2.1444091796875
1.62939453125,2.1014404296875
1.612060546875,2.11572265625
1.5904541015625,2.03759765625
1.637451171875,2.0074462890625
1.65069580078125,1.957763671875
1.60546875,1.96453857421875
1.5836181640625,1.90948486328125
1.60931396484375,1.87969970703125
1.60968017578125,1.84234619140625
1.60223388671875,1.8310546875
1.612060546875,1.79119873046875
1.61138916015625,1.75701904296875
1.62451171875,1.74774169921875
1.62286376953125,1.67388916015625
1.614990234375,1.6751708984375
1.61895751953125,1.635498046875
1.6339111328125,1.62322998046875
1.62738037109375,1.5999755859375
1.62298583984375,1.5733642578125
1.662109375,1.558837890625
1.6153564453125,1.52557373046875
1.63330078125,1.49920654296875
1.61627197265625,1.472412109375
1.6246337890625,1.4271240234375
1.63372802734375,1.4515380859375
1.634765625,1.3890380859375
1.62548828125,1.337158203125
1.5955810546875,1.3563232421875
1.6077880859375,1.32940673828125
1.64447021484375,1.29486083984375
1.6556396484375,1.28729248046875
1.63201904296875,1.268310546875
1.62115478515625,1.24200439453125
1.62225341796875,1.201416015625
1.6258544921875,1.20458984375
1.60986328125,1.1669921875
1.63751220703125,1.143310546875
1.61846923828125,1.16009521484375
1.62445068359375,1.11920166015625
1.6209716796875,1.079345703125
1.6160888671875,1.10943603515625
1.6219482421875,1.0804443359375
1.622314453125,1.0379638671875
1.6334228515625,1.0216064453125
1.64501953125,1.00958251953125
1.61602783203125,1.0052490234375
1.60107421875,0.98187255859375
1.63519287109375,0.9483642578125
1.60101318359375,0.94482421875
1.62274169921875,0.91424560546875
END
BEGIN
0.0197525024414062,0.0701141357421875
0.0210037231445312,0.0721931457519531
0.02142333984375,0.0739250183105469
0.0229835510253906,0.0760879516601562
0.023956298828125,0.0771446228027344
0.0242042541503906,0.0795516967773438
0.0257225036621094,0.0820884704589844
0.0262832641601562,0.0835342407226562
0.0259857177734375,0.0854644775390625
0.0276947021484375,0.0873031616210938
0.0288162231445312,0.0878181457519531
0.0289688110351562,0.090362548828125
0.0313186645507812,0.0922660827636719
0.0316886901855469,0.0936546325683594
0.0331840515136719,0.0965118408203125
0.0329933166503906,0.0974617004394531
0.0343399047851562,0.0986976623535156
0.0355186462402344,0.102420806884766
0.0368309020996094,0.103061676025391
0.0384559631347656,0.104301452636719
0.0403060913085938,0.107131958007812
0.0410499572753906,0.108757019042969
0.041839599609375,0.1109619140625
0.04290771484375,0.111869812011719
0.0439834594726562,0.114856719970703
0.0464744567871094,0.115139007568359
0.0455169677734375,0.116470336914062
0.0477714538574219,0.118564605712891
0.0497360229492188,0.122146606445312
0.0508155822753906,0.121051788330078
0.0516204833984375,0.12457275390625
0.0522079467773438,0.126045227050781
0.054168701171875,0.127281188964844
0.05670166015625,0.129875183105469
0.05560302734375,0.130271911621094
0.059356689453125,0.131576538085938
0.0594482421875,0.133941650390625
0.0597610473632812,0.133918762207031
0.0612640380859375,0.135887145996094
0.0643768310546875,0.137260437011719
0.06585693359375,0.139747619628906
0.0675735473632812,0.142074584960938
0.0693588256835938,0.142509460449219
0.069091796875,0.145660400390625
0.0700225830078125,0.145919799804688
0.0722503662109375,0.147239685058594
0.0744476318359375,0.149276733398438
0.0772171020507812,0.149551391601562
0.0778884887695312,0.151817321777344
0.0799102783203125,0.153244018554688
0.0805587768554688,0.15484619140625
0.0817337036132812,0.154350280761719
0.083953857421875,0.158950805664062
0.0871658325195312,0.159736633300781
0.0866317749023438,0.158889770507812
0.0891571044921875,0.160171508789062
0.0915985107421875,0.161338806152344
0.0924530029296875,0.163925170898438
0.094024658203125,0.164825439453125
0.0975189208984375,0.165786743164062
0.0982513427734375,0.167678833007812
0.100685119628906,0.168869018554688
0.102516174316406,0.170890808105469
0.102500915527344,0.170921325683594
0.105873107910156,0.172477722167969
0.108047485351562,0.17327880859375
0.109809875488281,0.175048828125
0.1116943359375,0.176620483398438
0.113632202148438,0.177352905273438
0.114852905273438,0.177642822265625
0.1162109375,0.179603576660156
0.118064880371094,0.182769775390625
0.120018005371094,0.180694580078125
0.123245239257812,0.183097839355469
0.124320983886719,0.185493469238281
0.126213073730469,0.185447692871094
0.129570007324219,0.185089111328125
0.131858825683594,0.186454772949219
0.13201904296875,0.188407897949219
0.134727478027344,0.1893310546875
0.137176513671875,0.189918518066406
0.138748168945312,0.191383361816406
0.141448974609375,0.190956115722656
0.142906188964844,0.192863464355469
0.144912719726562,0.194473266601562
0.149215698242188,0.194686889648438
0.149131774902344,0.195793151855469
0.153465270996094,0.196334838867188
0.154472351074219,0.197547912597656
0.155235290527344,0.199234008789062
0.159744262695312,0.199211120605469
0.161445617675781,0.201217651367188
0.163551330566406,0.201164245605469
0.165924072265625,0.202484130859375
0.168403625488281,0.20361328125
0.169403076171875,0.204582214355469
0.171859741210938,0.205955505371094
0.1739501953125,0.205543518066406
0.176239013671875,0.207664489746094
0.178611755371094,0.20709228515625
0.182899475097656,0.209007263183594
END
BEGIN
0.464797973632812,-0.178192138671875
0.46038818359375,-0.17901611328125
0.460922241210938,-0.176025390625
0.45751953125,-0.176513671875
0.45758056640625,-0.180694580078125
0.453598022460938,-0.179656982421875
0.453582763671875,-0.182525634765625
0.4500732421875,-0.180313110351562
0.450912475585938,-0.183486938476562
0.448104858398438,-0.18499755859375
0.449264526367188,-0.186569213867188
0.445022583007812,-0.18536376953125
0.444076538085938,-0.188995361328125
0.438278198242188,-0.189468383789062
0.435012817382812,-0.194473266601562
0.435394287109375,-0.1923828125
0.437271118164062,-0.193130493164062
0.4361572265625,-0.194976806640625
0.432281494140625,-0.196090698242188
0.43267822265625,-0.199920654296875
0.427108764648438,-0.202484130859375
0.430938720703125,-0.204055786132812
0.425765991210938,-0.206588745117188
0.423583984375,-0.203109741210938
0.4178466796875,-0.210037231445312
0.41864013671875,-0.206588745117188
0.412506103515625,-0.210800170898438
0.410736083984375,-0.210174560546875
0.410446166992188,-0.21319580078125
0.408737182617188,-0.213531494140625
0.407424926757812,-0.216583251953125
0.405410766601562,-0.219573974609375
0.402267456054688,-0.21734619140625
0.40020751953125,-0.221466064453125
0.398971557617188,-0.222320556640625
0.396331787109375,-0.22515869140625
0.39508056640625,-0.225067138671875
0.3917236328125,-0.228851318359375
0.38525390625,-0.230804443359375
0.3846435546875,-0.229812622070312
0.38421630859375,-0.230743408203125
0.378799438476562,-0.231597900390625
0.377044677734375,-0.235122680664062
0.377655029296875,-0.237518310546875
0.374908447265625,-0.234283447265625
0.372848510742188,-0.236679077148438
0.36859130859375,-0.240432739257812
0.365036010742188,-0.240631103515625
0.364364624023438,-0.245437622070312
0.360580444335938,-0.242156982421875
0.358917236328125,-0.247299194335938
0.354843139648438,-0.245269775390625
0.354827880859375,-0.248626708984375
0.352294921875,-0.248062133789062
0.349411010742188,-0.251754760742188
0.343154907226562,-0.251602172851562
0.344772338867188,-0.251373291015625
0.341354370117188,-0.2509765625
0.340423583984375,-0.257614135742188
0.336349487304688,-0.258270263671875
0.332427978515625,-0.258636474609375
0.332122802734375,-0.25811767578125
0.328292846679688,-0.2587890625
0.324462890625,-0.260910034179688
0.322250366210938,-0.264068603515625
0.317703247070312,-0.26641845703125
0.319427490234375,-0.26434326171875
0.311508178710938,-0.264739990234375
0.311355590820312,-0.267074584960938
0.3087158203125,-0.263748168945312
0.305816650390625,-0.266799926757812
0.30242919921875,-0.264938354492188
0.2987060546875,-0.2674560546875
0.296478271484375,-0.269195556640625
0.295944213867188,-0.270523071289062
0.2916259765625,-0.269943237304688
0.289596557617188,-0.272064208984375
0.284332275390625,-0.27154541015625
0.280014038085938,-0.272476196289062
0.281204223632812,-0.270980834960938
0.27215576171875,-0.273056030273438
0.271621704101562,-0.273788452148438
0.2685546875,-0.272872924804688
0.263107299804688,-0.27301025390625
0.264816284179688,-0.27215576171875
0.257186889648438,-0.272857666015625
0.257781982421875,-0.271865844726562
0.25604248046875,-0.274139404296875
0.24652099609375,-0.273834228515625
0.248977661132812,-0.274978637695312
0.240127563476562,-0.275299072265625
0.238128662109375,-0.274429321289062
0.239151000976562,-0.274566650390625
0.241470336914062,-0.286956787109375
0.230789184570312,-0.271865844726562
0.226287841796875,-0.273574829101562
0.219100952148438,-0.274322509765625
0.21734619140625,-0.269317626953125
0.216659545898438,-0.266159057617188
0.21075439453125,-0.265625
0.2115478515625,-0.265350341796875
END