CITIFILE A.01.01
#Momentum: B.08.00.182 (*) 331.200 May  5 2008 
#Momentum Date and Time: Wed Apr 28 11:00:20 2010

NAME PortSet1/TwoP0_Dsolver_data/first_odd_mode_is_1/most_even_mode_is_1/PMLG4/LS0

CONSTANT NBR_OF_PORTS 2

VAR freq MAG 9

DATA GAMMA_1[1] RI
DATA GAMMA_1[2] RI
DATA Z0_1[1,1] RI
DATA Z0_1[1,2] RI
DATA Z0_1[2,1] RI
DATA Z0_1[2,2] RI
DATA LAMBADAI_1[1,1] RI
DATA LAMBADAI_1[1,2] RI
DATA LAMBADAI_1[2,1] RI
DATA LAMBADAI_1[2,2] RI
DATA Zcir_1[1,1] RI
DATA Zcir_1[1,2] RI
DATA Zcir_1[2,1] RI
DATA Zcir_1[2,2] RI
DATA Ycir_1[1,1] RI
DATA Ycir_1[1,2] RI
DATA Ycir_1[2,1] RI
DATA Ycir_1[2,2] RI

VAR_LIST_BEGIN
	 1000000000
	 1010000000
	 1020000000
	 1030000000
	 1166860876
	 1383645113
	 1600429350
	 1817213588
	 2000000000
VAR_LIST_END

BEGIN
	-0,	 21.197761
	-0,	 21.41081825
	-0,	 21.62389673
	-0,	 21.83699623
	-0,	 24.7556465
	-0,	 29.38722623
	-0,	 34.02992107
	-0,	 38.68462333
	-0,	 42.61943561
END
BEGIN
	-0,	 30.7098397
	-0,	 31.0177825
	-0,	 31.32572469
	-0,	 31.6337126
	-0,	 35.85129345
	-0,	 42.52538731
	-0,	 49.24602053
	-0,	 55.96519954
	-0,	 61.64326681
END
BEGIN
	 176.8444568,	 0
	 176.2625245,	 0
	 175.6872964,	 0
	 175.1184007,	 0
	 167.921486,	 0
	 158.4263046,	 0
	 150.4716899,	 0
	 143.8514225,	 0
	 139.0461865,	 0
END
BEGIN
	 121.49829,	 0
	 120.9131237,	 0
	 120.3345672,	 0
	 119.7624888,	 0
	 112.5248309,	 0
	 102.9119542,	 0
	 94.97391303,	 0
	 88.31544068,	 0
	 83.482206,	 0
END
BEGIN
	 121.49829,	 0
	 120.9131237,	 0
	 120.3345672,	 0
	 119.7624888,	 0
	 112.5248309,	 0
	 102.9119542,	 0
	 94.97391303,	 0
	 88.31544068,	 0
	 83.482206,	 0
END
BEGIN
	 121.5001234,	 0
	 120.9104419,	 0
	 120.3273709,	 0
	 119.750815,	 0
	 112.4537429,	 0
	 102.7432271,	 0
	 94.73164645,	 0
	 87.99419019,	 0
	 83.09584356,	 0
END
BEGIN
	 0,	 30.51074423
	 0,	 30.81668445
	 0,	 31.12262519
	 0,	 31.42861147
	 0,	 35.61885276
	 0,	 42.25038981
	 0,	 48.92854091
	 0,	 55.60683126
	 0,	 61.2516975
END
BEGIN
	 0,	-0.1972350582
	 0,	-0.1992025145
	 0,	-0.2011684854
	 0,	-0.2031343234
	 0,	-0.2299502442
	 0,	-0.2715279984
	 0,	-0.3129247846
	 0,	-0.3525664163
	 0,	-0.3846163011
END
BEGIN
	 0,	-9.400827528
	 0,	-9.49536856
	 0,	-9.589906491
	 0,	-9.684483978
	 0,	-10.98085891
	 0,	-13.0275249
	 0,	-15.11547955
	 0,	-17.20068083
	 0,	-18.96909181
END
BEGIN
	 0,	 21.39685647
	 0,	 21.6119163
	 0,	 21.82699623
	 0,	 22.04209736
	 0,	 24.98808719
	 0,	 29.66222373
	 0,	 34.34740069
	 0,	 39.0429916
	 0,	 43.01100492
END
BEGIN
	-7.288406432e-018,	 1.796937752e-009
	-5.868581225e-019,	 1.791795275e-009
	 1.414323461e-017,	 1.786712339e-009
	-7.099740434e-018,	 1.781685827e-009
	-1.652131824e-017,	 1.718134293e-009
	-7.070393953e-018,	 1.63437876e-009
	-3.762110253e-017,	 1.564487494e-009
	 6.17833307e-017,	 1.50647161e-009
	-2.924722894e-017,	 1.464520056e-009
END
BEGIN
	-8.236259804e-019,	 1.083535814e-009
	-7.146754709e-019,	 1.078350305e-009
	 2.477203646e-018,	 1.07322348e-009
	-5.803565912e-018,	 1.068154148e-009
	-4.564983536e-018,	 1.004029334e-009
	 3.651874936e-018,	 9.189052137e-010
	 1.569756712e-018,	 8.486659408e-010
	 3.139010309e-018,	 7.898195652e-010
	-1.920047065e-018,	 7.471640194e-010
END
BEGIN
	-8.236259804e-019,	 1.083535814e-009
	-7.146754709e-019,	 1.078350305e-009
	 2.477203646e-018,	 1.07322348e-009
	-5.803565912e-018,	 1.068154148e-009
	-4.564983536e-018,	 1.004029334e-009
	 3.651874936e-018,	 9.189052137e-010
	 1.569756712e-018,	 8.486659408e-010
	 3.139010309e-018,	 7.898195652e-010
	-1.920047065e-018,	 7.471640194e-010
END
BEGIN
	-9.514017762e-019,	 1.088164088e-009
	-7.051148765e-019,	 1.082937919e-009
	 2.69787188e-018,	 1.077770414e-009
	-5.773921917e-018,	 1.072660717e-009
	-4.765415109e-018,	 1.007998187e-009
	 3.381348234e-018,	 9.219795116e-010
	 7.354227364e-019,	 8.51053647e-010
	 4.289178534e-018,	 7.914556452e-010
	-2.43933393e-018,	 7.481679995e-010
END
BEGIN
	 3.054294986e-016,	 3.326595711e-008
	-6.364962426e-018,	 3.326762314e-008
	-5.507548773e-016,	 3.326921385e-008
	 5.868541055e-017,	 3.327090122e-008
	 5.63686196e-016,	 3.32952729e-008
	 5.093800516e-016,	 3.329372097e-008
	 1.860799125e-015,	 3.338731981e-008
	-2.784148158e-015,	 3.344121642e-008
	 1.298404154e-015,	 3.349046775e-008
END
BEGIN
	-3.081212779e-016,	-3.33627877e-008
	 6.567535734e-018,	-3.336616587e-008
	 5.554940278e-016,	-3.336947922e-008
	-5.806837016e-017,	-3.337289035e-008
	-5.686834811e-016,	-3.342139374e-008
	-5.168300432e-016,	-3.346291823e-008
	-1.888129163e-015,	-3.359645846e-008
	 2.82836873e-015,	-3.369550419e-008
	-1.320866917e-015,	-3.378494658e-008
END
BEGIN
	-3.081212779e-016,	-3.33627877e-008
	 6.567535734e-018,	-3.336616587e-008
	 5.554940278e-016,	-3.336947922e-008
	-5.806837016e-017,	-3.337289035e-008
	-5.686834811e-016,	-3.342139374e-008
	-5.168300432e-016,	-3.346291823e-008
	-1.888129163e-015,	-3.359645846e-008
	 2.82836873e-015,	-3.369550419e-008
	-1.320866917e-015,	-3.378494658e-008
END
BEGIN
	 3.199598304e-016,	 4.392131403e-008
	 7.519821166e-020,	 4.397796798e-008
	-5.866793612e-016,	 4.403449269e-008
	 1.145958102e-016,	 4.409104002e-008
	 6.271696625e-016,	 4.486054064e-008
	 4.788415266e-016,	 4.602842596e-008
	 1.903956057e-015,	 4.726592042e-008
	-2.951494051e-015,	 4.845827738e-008
	 1.393649292e-015,	 4.945950801e-008
END
