CITIFILE A.01.01
#Momentum: B.08.00.182 (*) 331.200 May  5 2008 
#Momentum Date and Time: Wed Apr 28 14:13:04 2010

NAME Momentum.SP

#  mode: MW    project: C:\Users\APLPrj02\AppData\Local\Temp\8930856\proj    reference: S_50

CONSTANT NBR_OF_PORTS 1

CONSTANT NORMALIZATION 1

VAR freq MAG 7

DATA S[1,1] RI
DATA S_50[1,1] RI
DATA S_Z0[1,1] RI
DATA GAMMA[1] RI
DATA Z0[1] RI
DATA PORTZ[1] RI

VAR_LIST_BEGIN
	 1300000000
	 1366666667
	 1433333333
	 1500000000
	 1566666667
	 1655555556
	 1700000000
VAR_LIST_END

BEGIN
	-0.0169939732,	-0.94872455
	-0.355027943,	-0.873472059
	-0.634015752,	-0.687824987
	-0.826171254,	-0.420016851
	-0.90848857,	-0.104781129
	-0.835619713,	 0.312950958
	-0.726154331,	 0.49268069
END
BEGIN
	-0.0169939732,	-0.94872455
	-0.355027943,	-0.873472059
	-0.634015752,	-0.687824987
	-0.826171254,	-0.420016851
	-0.90848857,	-0.104781129
	-0.835619713,	 0.312950958
	-0.726154331,	 0.49268069
END
BEGIN
	 0.128923959,	-0.940534819
	-0.216255145,	-0.914861813
	-0.534568125,	-0.759181493
	-0.777110447,	-0.483488322
	-0.889926747,	-0.123427907
	-0.792607656,	 0.365615908
	-0.647634329,	 0.563510034
END
BEGIN
	 1.44708692e-026,	 41.8852118
	 8.75629464e-020,	 44.008411
	 2.8127805e-019,	 46.1315507
	 1.62789047e-020,	 48.2546558
	 5.03124565e-020,	 50.3776922
	 4.35962404e-020,	 53.2089967
	 4.9340657e-027,	 54.625088
END
BEGIN
	 42.8486232,	 6.39043786e-017
	 42.5435163,	-1.05222217e-016
	 42.2470506,	-1.11220308e-016
	 41.958665,	-1.74361534e-017
	 41.6765541,	-2.96501477e-018
	 41.3126845,	 2.09254524e-017
	 41.1363772,	 3.44381876e-017
END
BEGIN
	 50,	 0
	 50,	 0
	 50,	 0
	 50,	 0
	 50,	 0
	 50,	 0
	 50,	 0
END
