CITIFILE A.01.01
#Momentum: B.08.00.182 (*) 331.200 May  5 2008 
#Momentum Date and Time: Wed Apr 28 14:13:04 2010

NAME Momentum.SP

#  mode: MW    reference: S_50

CONSTANT NBR_OF_PORTS 1

CONSTANT NORMALIZATION 1

VAR freq MAG 113

DATA S[1,1] RI
DATA S_50[1,1] RI
DATA S_Z0[1,1] RI
DATA GAMMA[1] RI
DATA Z0[1] RI
DATA PORTZ[1] RI

VAR_LIST_BEGIN
	 1300000000
	 1304166667
	 1308333333
	 1312500000
	 1316666667
	 1320833333
	 1325000000
	 1329166667
	 1333333334
	 1337500000
	 1341666667
	 1345833334
	 1350000000
	 1354166667
	 1358333334
	 1362500000
	 1366666667
	 1370833334
	 1375000000
	 1379166667
	 1383333334
	 1387500000
	 1391666667
	 1395833333
	 1400000000
	 1404166667
	 1408333333
	 1412500000
	 1416666667
	 1420833333
	 1425000000
	 1429166666
	 1433333333
	 1437500000
	 1441666666
	 1445833333
	 1450000000
	 1454166666
	 1458333333
	 1462500000
	 1466666667
	 1470833333
	 1475000000
	 1479166667
	 1483333333
	 1487500000
	 1491666667
	 1495833333
	 1500000000
	 1504166667
	 1508333333
	 1512500000
	 1516666667
	 1520833333
	 1525000000
	 1529166667
	 1533333334
	 1537500000
	 1541666667
	 1545833334
	 1550000000
	 1554166667
	 1558333334
	 1562500000
	 1566666667
	 1569444445
	 1572222223
	 1575000000
	 1577777778
	 1580555556
	 1583333334
	 1586111111
	 1588888889
	 1591666667
	 1594444445
	 1597222223
	 1600000000
	 1602777778
	 1605555556
	 1608333334
	 1611111112
	 1613888889
	 1616666667
	 1619444445
	 1622222223
	 1625000000
	 1627777778
	 1630555556
	 1633333334
	 1636111112
	 1638888889
	 1641666667
	 1644444445
	 1647222223
	 1650000000
	 1652777778
	 1655555556
	 1658333334
	 1661111112
	 1663888889
	 1666666667
	 1669444445
	 1672222223
	 1675000000
	 1677777778
	 1680555556
	 1683333334
	 1686111111
	 1688888889
	 1691666667
	 1694444445
	 1697222222
	 1700000000
VAR_LIST_END

BEGIN
	-0.016994,	-0.94872
	-0.039196,	-0.94779
	-0.061305,	-0.94633
	-0.083307,	-0.94434
	-0.10519,	-0.94182
	-0.12694,	-0.93879
	-0.14856,	-0.93525
	-0.17003,	-0.93121
	-0.19134,	-0.92668
	-0.21248,	-0.92166
	-0.23345,	-0.91615
	-0.25423,	-0.91018
	-0.27481,	-0.90374
	-0.29519,	-0.89684
	-0.31535,	-0.88949
	-0.3353,	-0.8817
	-0.35502,	-0.87347
	-0.37451,	-0.86481
	-0.39375,	-0.85572
	-0.41275,	-0.84622
	-0.43149,	-0.83631
	-0.44997,	-0.82599
	-0.46817,	-0.81528
	-0.48611,	-0.80418
	-0.50376,	-0.79269
	-0.52112,	-0.78083
	-0.53818,	-0.7686
	-0.55494,	-0.75601
	-0.5714,	-0.74306
	-0.58754,	-0.72976
	-0.60336,	-0.71611
	-0.61885,	-0.70213
	-0.63401,	-0.68782
	-0.64883,	-0.67319
	-0.6633,	-0.65824
	-0.67743,	-0.64298
	-0.69119,	-0.62742
	-0.70459,	-0.61156
	-0.71762,	-0.59542
	-0.73027,	-0.579
	-0.74253,	-0.56231
	-0.75441,	-0.54535
	-0.7659,	-0.52814
	-0.77698,	-0.51068
	-0.78765,	-0.49299
	-0.79791,	-0.47506
	-0.80776,	-0.45692
	-0.81718,	-0.43857
	-0.82617,	-0.42001
	-0.83472,	-0.40127
	-0.84284,	-0.38234
	-0.85051,	-0.36325
	-0.85774,	-0.344
	-0.86451,	-0.3246
	-0.87083,	-0.30507
	-0.87669,	-0.28541
	-0.88209,	-0.26563
	-0.88702,	-0.24576
	-0.89149,	-0.22579
	-0.8955,	-0.20575
	-0.89903,	-0.18564
	-0.9021,	-0.16548
	-0.9047,	-0.14527
	-0.90682,	-0.12503
	-0.90848,	-0.10478
	-0.90933,	-0.091271
	-0.90997,	-0.07776
	-0.9104,	-0.064252
	-0.91063,	-0.05075
	-0.91065,	-0.037257
	-0.91046,	-0.023777
	-0.91007,	-0.010312
	-0.90948,	 0.0031348
	-0.90868,	 0.01656
	-0.90768,	 0.029961
	-0.90647,	 0.043335
	-0.90507,	 0.056679
	-0.90346,	 0.069989
	-0.90165,	 0.083265
	-0.89965,	 0.096501
	-0.89744,	 0.10969
	-0.89504,	 0.12284
	-0.89244,	 0.13595
	-0.88964,	 0.149
	-0.88664,	 0.16201
	-0.88345,	 0.17496
	-0.88007,	 0.18785
	-0.87649,	 0.20068
	-0.87271,	 0.21344
	-0.86874,	 0.22614
	-0.86458,	 0.23878
	-0.86023,	 0.25133
	-0.85569,	 0.26382
	-0.85095,	 0.27623
	-0.84603,	 0.28855
	-0.84092,	 0.30079
	-0.83561,	 0.31295
	-0.83013,	 0.32501
	-0.82445,	 0.33698
	-0.81859,	 0.34885
	-0.81254,	 0.36062
	-0.80631,	 0.37228
	-0.7999,	 0.38384
	-0.79331,	 0.39529
	-0.78654,	 0.40662
	-0.77959,	 0.41783
	-0.77247,	 0.42892
	-0.76517,	 0.43988
	-0.7577,	 0.45071
	-0.75006,	 0.46141
	-0.74226,	 0.47198
	-0.73428,	 0.4824
	-0.72615,	 0.49268
END
BEGIN
	-0.016994,	-0.94872
	-0.039196,	-0.94779
	-0.061305,	-0.94633
	-0.083307,	-0.94434
	-0.10519,	-0.94182
	-0.12694,	-0.93879
	-0.14856,	-0.93525
	-0.17003,	-0.93121
	-0.19134,	-0.92668
	-0.21248,	-0.92166
	-0.23345,	-0.91615
	-0.25423,	-0.91018
	-0.27481,	-0.90374
	-0.29519,	-0.89684
	-0.31535,	-0.88949
	-0.3353,	-0.8817
	-0.35502,	-0.87347
	-0.37451,	-0.86481
	-0.39375,	-0.85572
	-0.41275,	-0.84622
	-0.43149,	-0.83631
	-0.44997,	-0.82599
	-0.46817,	-0.81528
	-0.48611,	-0.80418
	-0.50376,	-0.79269
	-0.52112,	-0.78083
	-0.53818,	-0.7686
	-0.55494,	-0.75601
	-0.5714,	-0.74306
	-0.58754,	-0.72976
	-0.60336,	-0.71611
	-0.61885,	-0.70213
	-0.63401,	-0.68782
	-0.64883,	-0.67319
	-0.6633,	-0.65824
	-0.67743,	-0.64298
	-0.69119,	-0.62742
	-0.70459,	-0.61156
	-0.71762,	-0.59542
	-0.73027,	-0.579
	-0.74253,	-0.56231
	-0.75441,	-0.54535
	-0.7659,	-0.52814
	-0.77698,	-0.51068
	-0.78765,	-0.49299
	-0.79791,	-0.47506
	-0.80776,	-0.45692
	-0.81718,	-0.43857
	-0.82617,	-0.42001
	-0.83472,	-0.40127
	-0.84284,	-0.38234
	-0.85051,	-0.36325
	-0.85774,	-0.344
	-0.86451,	-0.3246
	-0.87083,	-0.30507
	-0.87669,	-0.28541
	-0.88209,	-0.26563
	-0.88702,	-0.24576
	-0.89149,	-0.22579
	-0.8955,	-0.20575
	-0.89903,	-0.18564
	-0.9021,	-0.16548
	-0.9047,	-0.14527
	-0.90682,	-0.12503
	-0.90848,	-0.10478
	-0.90933,	-0.091271
	-0.90997,	-0.07776
	-0.9104,	-0.064252
	-0.91063,	-0.05075
	-0.91065,	-0.037257
	-0.91046,	-0.023777
	-0.91007,	-0.010312
	-0.90948,	 0.0031348
	-0.90868,	 0.01656
	-0.90768,	 0.029961
	-0.90647,	 0.043335
	-0.90507,	 0.056679
	-0.90346,	 0.069989
	-0.90165,	 0.083265
	-0.89965,	 0.096501
	-0.89744,	 0.10969
	-0.89504,	 0.12284
	-0.89244,	 0.13595
	-0.88964,	 0.149
	-0.88664,	 0.16201
	-0.88345,	 0.17496
	-0.88007,	 0.18785
	-0.87649,	 0.20068
	-0.87271,	 0.21344
	-0.86874,	 0.22614
	-0.86458,	 0.23878
	-0.86023,	 0.25133
	-0.85569,	 0.26382
	-0.85095,	 0.27623
	-0.84603,	 0.28855
	-0.84092,	 0.30079
	-0.83561,	 0.31295
	-0.83013,	 0.32501
	-0.82445,	 0.33698
	-0.81859,	 0.34885
	-0.81254,	 0.36062
	-0.80631,	 0.37228
	-0.7999,	 0.38384
	-0.79331,	 0.39529
	-0.78654,	 0.40662
	-0.77959,	 0.41783
	-0.77247,	 0.42892
	-0.76517,	 0.43988
	-0.7577,	 0.45071
	-0.75006,	 0.46141
	-0.74226,	 0.47198
	-0.73428,	 0.4824
	-0.72615,	 0.49268
END
BEGIN
	 0.12892,	-0.94053
	 0.1074,	-0.94278
	 0.085819,	-0.94452
	 0.064191,	-0.94575
	 0.042528,	-0.94646
	 0.02084,	-0.94665
	-0.00086095,	-0.94633
	-0.022564,	-0.9455
	-0.044259,	-0.94415
	-0.065935,	-0.94228
	-0.087582,	-0.9399
	-0.10918,	-0.93701
	-0.13074,	-0.9336
	-0.15224,	-0.92968
	-0.17366,	-0.92525
	-0.195,	-0.92031
	-0.21625,	-0.91486
	-0.2374,	-0.90889
	-0.25843,	-0.90242
	-0.27933,	-0.89544
	-0.3001,	-0.88796
	-0.32073,	-0.87996
	-0.34119,	-0.87147
	-0.36149,	-0.86247
	-0.3816,	-0.85297
	-0.40152,	-0.84297
	-0.42124,	-0.83247
	-0.44074,	-0.82148
	-0.46001,	-0.80999
	-0.47904,	-0.79802
	-0.49782,	-0.78555
	-0.51633,	-0.77261
	-0.53456,	-0.75918
	-0.5525,	-0.74527
	-0.57014,	-0.73089
	-0.58745,	-0.71605
	-0.60443,	-0.70074
	-0.62107,	-0.68497
	-0.63734,	-0.66875
	-0.65324,	-0.65209
	-0.66875,	-0.63498
	-0.68385,	-0.61745
	-0.69854,	-0.5995
	-0.7128,	-0.58113
	-0.72661,	-0.56237
	-0.73996,	-0.54321
	-0.75283,	-0.52366
	-0.76522,	-0.50375
	-0.77711,	-0.48348
	-0.78848,	-0.46287
	-0.79932,	-0.44193
	-0.80963,	-0.42067
	-0.81938,	-0.39911
	-0.82857,	-0.37727
	-0.83718,	-0.35516
	-0.84521,	-0.3328
	-0.85265,	-0.31021
	-0.85949,	-0.2874
	-0.86571,	-0.2644
	-0.87132,	-0.24123
	-0.87631,	-0.2179
	-0.88066,	-0.19443
	-0.88439,	-0.17085
	-0.88747,	-0.14718
	-0.88992,	-0.12342
	-0.8912,	-0.10756
	-0.89219,	-0.091675
	-0.89289,	-0.075777
	-0.89331,	-0.059871
	-0.89345,	-0.043965
	-0.8933,	-0.028064
	-0.89286,	-0.012173
	-0.89214,	 0.0037011
	-0.89114,	 0.019553
	-0.88986,	 0.035378
	-0.88829,	 0.051169
	-0.88644,	 0.066922
	-0.88431,	 0.08263
	-0.88191,	 0.098289
	-0.87922,	 0.11389
	-0.87626,	 0.12943
	-0.87302,	 0.14491
	-0.86951,	 0.16031
	-0.86573,	 0.17564
	-0.86168,	 0.19089
	-0.85736,	 0.20605
	-0.85277,	 0.22112
	-0.84791,	 0.2361
	-0.84279,	 0.25097
	-0.83741,	 0.26573
	-0.83177,	 0.28038
	-0.82588,	 0.29491
	-0.81972,	 0.30932
	-0.81332,	 0.3236
	-0.80666,	 0.33774
	-0.79975,	 0.35175
	-0.7926,	 0.36561
	-0.78521,	 0.37932
	-0.77758,	 0.39288
	-0.76971,	 0.40628
	-0.7616,	 0.41951
	-0.75327,	 0.43257
	-0.74471,	 0.44545
	-0.73593,	 0.45815
	-0.72693,	 0.47067
	-0.71772,	 0.48299
	-0.7083,	 0.49512
	-0.69867,	 0.50705
	-0.68884,	 0.51877
	-0.67882,	 0.53028
	-0.66861,	 0.54158
	-0.65821,	 0.55265
	-0.64763,	 0.56351
END
BEGIN
	 1.447086921e-026,	 41.88521179
	 1.266489196e-020,	 42.01793839
	 1.078705204e-020,	 42.15065301
	 1.319721246e-021,	 42.28335564
	 8.887308636e-021,	 42.41604626
	 1.308772742e-020,	 42.54872486
	 4.638724521e-021,	 42.68139142
	 5.192109017e-021,	 42.8140778
	 8.71909521e-021,	 42.94678149
	 4.363165853e-021,	 43.07949521
	 4.061244693e-021,	 43.21220541
	 1.273371141e-020,	 43.3449088
	 2.394788937e-020,	 43.4776111
	 3.736938069e-020,	 43.6103124
	 5.266573308e-020,	 43.74301277
	 6.950644093e-020,	 43.87571228
	 8.756294638e-020,	 44.00841103
	 1.065086401e-019,	 44.14110909
	 1.260188632e-019,	 44.27380653
	 1.457709075e-019,	 44.40650344
	 1.654440167e-019,	 44.53919989
	 1.847193876e-019,	 44.67189597
	 2.03280171e-019,	 44.80459176
	 2.208114728e-019,	 44.93728732
	 2.370003551e-019,	 45.06998275
	 2.515358369e-019,	 45.20267812
	 2.641088954e-019,	 45.33537351
	 2.744124669e-019,	 45.468069
	 2.821414477e-019,	 45.60076467
	 2.869926954e-019,	 45.73346059
	 2.886650293e-019,	 45.86615686
	 2.86859232e-019,	 45.99885354
	 2.8127805e-019,	 46.13155072
	 2.716261945e-019,	 46.26424847
	 2.576103426e-019,	 46.39694688
	 2.389391386e-019,	 46.52964602
	 2.153231941e-019,	 46.66234598
	 1.864750897e-019,	 46.79504684
	 1.521093753e-019,	 46.92774866
	 1.119425714e-019,	 47.06045154
	 6.569316991e-020,	 47.19315555
	 1.308163507e-020,	 47.32586078
	 1.774351395e-021,	 47.45855012
	 4.122099051e-021,	 47.59123434
	 6.508382107e-021,	 47.7239185
	 8.925165534e-021,	 47.85660266
	 1.136446343e-020,	 47.98928689
	 1.381833903e-020,	 48.12197125
	 1.627890474e-020,	 48.25465583
	 1.873832217e-020,	 48.38734067
	 2.118880211e-020,	 48.52002586
	 2.362260462e-020,	 48.65271145
	 2.6032039e-020,	 48.78539752
	 2.840946384e-020,	 48.91808413
	 3.074728701e-020,	 49.05077136
	 3.303796573e-020,	 49.18345926
	 3.527400655e-020,	 49.31614791
	 3.74479654e-020,	 49.44883738
	 3.955244759e-020,	 49.58152773
	 4.158010783e-020,	 49.71421903
	 4.352365028e-020,	 49.84691134
	 4.537582855e-020,	 49.97960475
	 4.71294457e-020,	 50.11229931
	 4.877735432e-020,	 50.24499509
	 5.031245648e-020,	 50.37769216
	 5.126970495e-020,	 50.46615762
	 5.217160741e-020,	 50.55462371
	 5.301609747e-020,	 50.64309044
	 5.380111856e-020,	 50.73155784
	 5.452462388e-020,	 50.82002592
	 5.518457643e-020,	 50.90849471
	 5.577894903e-020,	 50.99696422
	 5.630572429e-020,	 51.08543447
	 5.676289462e-020,	 51.1739055
	 5.714846227e-020,	 51.2623773
	 5.746043926e-020,	 51.35084991
	 5.769684747e-020,	 51.43932335
	 5.785571855e-020,	 51.52779764
	 5.793509402e-020,	 51.61627279
	 5.793302518e-020,	 51.70474882
	 5.784757317e-020,	 51.79322577
	 5.767680896e-020,	 51.88170364
	 5.741881336e-020,	 51.97018246
	 5.707167698e-020,	 52.05866224
	 5.66335003e-020,	 52.14714302
	 5.610239362e-020,	 52.2356248
	 5.547647707e-020,	 52.32410761
	 5.475388065e-020,	 52.41259146
	 5.393274418e-020,	 52.50107639
	 5.301121733e-020,	 52.58956241
	 5.198745963e-020,	 52.67804953
	 5.085964046e-020,	 52.76653779
	 4.962593903e-020,	 52.85502719
	 4.828454444e-020,	 52.94351777
	 4.683365563e-020,	 53.03200953
	 4.527148141e-020,	 53.12050251
	 4.359624043e-020,	 53.20899672
	 4.180616127e-020,	 53.29749217
	 3.989948229e-020,	 53.3859889
	 3.787445177e-020,	 53.47448693
	 3.572932784e-020,	 53.56298626
	 3.346237854e-020,	 53.65148693
	 3.107188175e-020,	 53.73998895
	 2.855612525e-020,	 53.82849234
	 2.591340668e-020,	 53.91699713
	 2.314203359e-020,	 54.00550333
	 2.02403234e-020,	 54.09401096
	 1.720660341e-020,	 54.18252005
	 1.403921084e-020,	 54.27103062
	 1.073649277e-020,	 54.35954268
	 7.296806195e-021,	 54.44805626
	 3.718517988e-021,	 54.53657137
	 4.934065703e-027,	 54.62508804
END
BEGIN
	 42.84862316,	 6.390437861e-017
	 42.82928328,	-3.106995419e-019
	 42.8099898,	-4.275750784e-017
	 42.79074283,	-6.369650914e-017
	 42.7715425,	-6.338464022e-017
	 42.75238894,	-4.207536624e-017
	 42.73328227,	-1.873410698e-020
	 42.71418159,	 1.282835988e-017
	 42.69509069,	 1.146503555e-018
	 42.67601936,	-2.320661133e-017
	 42.65698394,	-4.369745608e-017
	 42.63798851,	-5.639338893e-017
	 42.61902655,	-6.809665093e-017
	 42.60009819,	-7.881931922e-017
	 42.5812036,	-8.857331564e-017
	 42.56234293,	-9.737040901e-017
	 42.54351633,	-1.052222173e-016
	 42.52472395,	-1.121402098e-016
	 42.50596594,	-1.181357093e-016
	 42.48724247,	-1.232198944e-016
	 42.46855367,	-1.274038011e-016
	 42.44989972,	-1.306983251e-016
	 42.43128076,	-1.331142237e-016
	 42.41269696,	-1.34662118e-016
	 42.39414846,	-1.353524943e-016
	 42.37563543,	-1.351957066e-016
	 42.35715802,	-1.342019779e-016
	 42.33871639,	-1.323814023e-016
	 42.32031071,	-1.297439467e-016
	 42.30194112,	-1.262994527e-016
	 42.2836078,	-1.220576378e-016
	 42.26531089,	-1.170280979e-016
	 42.24705057,	-1.112203081e-016
	 42.22882699,	-1.04643625e-016
	 42.21064031,	-9.730728776e-017
	 42.19249071,	-8.922042024e-017
	 42.17437833,	-8.039203201e-017
	 42.15630335,	-7.083102013e-017
	 42.13826592,	-6.054617056e-017
	 42.12026622,	-4.954615964e-017
	 42.1023044,	-3.783955552e-017
	 42.08438064,	-2.543481955e-017
	 42.0663687,	-2.193588043e-017
	 42.04834784,	-2.122447655e-017
	 42.03035492,	-2.049737434e-017
	 42.01239006,	-1.975478426e-017
	 41.99445337,	-1.899691421e-017
	 41.97654499,	-1.82239696e-017
	 41.95866504,	-1.743615336e-017
	 41.94081363,	-1.663366597e-017
	 41.9229909,	-1.581670552e-017
	 41.90519696,	-1.49854677e-017
	 41.88743195,	-1.414014585e-017
	 41.86969599,	-1.328093099e-017
	 41.85198921,	-1.240801183e-017
	 41.83431173,	-1.152157483e-017
	 41.81666367,	-1.062180419e-017
	 41.79904518,	-9.708881915e-018
	 41.78145637,	-8.78298781e-018
	 41.76389737,	-7.844299522e-018
	 41.74636831,	-6.892992559e-018
	 41.72886932,	-5.92924032e-018
	 41.71140053,	-4.953214117e-018
	 41.69396207,	-3.965083198e-018
	 41.67655407,	-2.965014774e-018
	 41.66496572,	-2.291752207e-018
	 41.65339101,	-1.613305998e-018
	 41.64182997,	-9.2972421e-019
	 41.63028264,	-2.410545191e-019
	 41.61874906,	 4.526557832e-019
	 41.60722927,	 1.151359787e-018
	 41.59572332,	 1.855010962e-018
	 41.58423123,	 2.563563153e-018
	 41.57275304,	 3.276970578e-018
	 41.56128881,	 3.995187826e-018
	 41.54983856,	 4.718169854e-018
	 41.53840233,	 5.445871983e-018
	 41.52698017,	 6.178249896e-018
	 41.51557212,	 6.915259637e-018
	 41.50417821,	 7.656857607e-018
	 41.49279848,	 8.40300056e-018
	 41.48143298,	 9.153645603e-018
	 41.47008174,	 9.908750191e-018
	 41.4587448,	 1.066827213e-017
	 41.44742221,	 1.143216956e-017
	 41.436114,	 1.220040098e-017
	 41.42482022,	 1.297292521e-017
	 41.4135409,	 1.374970142e-017
	 41.40227608,	 1.45306891e-017
	 41.39102581,	 1.53158481e-017
	 41.37979012,	 1.610513857e-017
	 41.36856906,	 1.689852101e-017
	 41.35736266,	 1.769595622e-017
	 41.34617097,	 1.849740535e-017
	 41.33499403,	 1.930282986e-017
	 41.32383187,	 2.011219151e-017
	 41.31268454,	 2.092545242e-017
	 41.30155208,	 2.174257498e-017
	 41.29043453,	 2.256352191e-017
	 41.27933193,	 2.338825626e-017
	 41.26824432,	 2.421674135e-017
	 41.25717174,	 2.504894083e-017
	 41.24611424,	 2.588481866e-017
	 41.23507185,	 2.672433907e-017
	 41.22404461,	 2.756746663e-017
	 41.21303257,	 2.841416618e-017
	 41.20203577,	 2.926440287e-017
	 41.19105424,	 3.011814212e-017
	 41.18008803,	 3.097534968e-017
	 41.16913719,	 3.183599156e-017
	 41.15820175,	 3.270003407e-017
	 41.14728175,	 3.356744381e-017
	 41.13637723,	 3.443818764e-017
END
BEGIN
	 50,	 0
	 50,	 0
	 50,	 0
	 50,	 0
	 50,	 0
	 50,	 0
	 50,	 0
	 50,	 0
	 50,	 0
	 50,	 0
	 50,	 0
	 50,	 0
	 50,	 0
	 50,	 0
	 50,	 0
	 50,	 0
	 50,	 0
	 50,	 0
	 50,	 0
	 50,	 0
	 50,	 0
	 50,	 0
	 50,	 0
	 50,	 0
	 50,	 0
	 50,	 0
	 50,	 0
	 50,	 0
	 50,	 0
	 50,	 0
	 50,	 0
	 50,	 0
	 50,	 0
	 50,	 0
	 50,	 0
	 50,	 0
	 50,	 0
	 50,	 0
	 50,	 0
	 50,	 0
	 50,	 0
	 50,	 0
	 50,	 0
	 50,	 0
	 50,	 0
	 50,	 0
	 50,	 0
	 50,	 0
	 50,	 0
	 50,	 0
	 50,	 0
	 50,	 0
	 50,	 0
	 50,	 0
	 50,	 0
	 50,	 0
	 50,	 0
	 50,	 0
	 50,	 0
	 50,	 0
	 50,	 0
	 50,	 0
	 50,	 0
	 50,	 0
	 50,	 0
	 50,	 0
	 50,	 0
	 50,	 0
	 50,	 0
	 50,	 0
	 50,	 0
	 50,	 0
	 50,	 0
	 50,	 0
	 50,	 0
	 50,	 0
	 50,	 0
	 50,	 0
	 50,	 0
	 50,	 0
	 50,	 0
	 50,	 0
	 50,	 0
	 50,	 0
	 50,	 0
	 50,	 0
	 50,	 0
	 50,	 0
	 50,	 0
	 50,	 0
	 50,	 0
	 50,	 0
	 50,	 0
	 50,	 0
	 50,	 0
	 50,	 0
	 50,	 0
	 50,	 0
	 50,	 0
	 50,	 0
	 50,	 0
	 50,	 0
	 50,	 0
	 50,	 0
	 50,	 0
	 50,	 0
	 50,	 0
	 50,	 0
	 50,	 0
	 50,	 0
	 50,	 0
	 50,	 0
	 50,	 0
END
