CITIFILE A.01.01
#Momentum: B.08.00.182 (*) 331.200 May  5 2008 
#Momentum Date and Time: Wed Apr 28 11:02:32 2010

NAME Momentum.SP

#  mode: MW    reference: S_50

CONSTANT NBR_OF_PORTS 1

CONSTANT NORMALIZATION 1

VAR freq MAG 297

DATA S[1,1] RI
DATA S_50[1,1] RI
DATA S_Z0[1,1] RI
DATA GAMMA[1] RI
DATA Z0[1] RI
DATA PORTZ[1] RI

VAR_LIST_BEGIN
	 1000000000
	 1000651042
	 1001302083
	 1001953125
	 1002604167
	 1003255208
	 1003906250
	 1004557292
	 1005208333
	 1005859375
	 1006510417
	 1007161458
	 1007812500
	 1008463542
	 1009114583
	 1009765625
	 1010416667
	 1011067708
	 1011718750
	 1012369792
	 1013020833
	 1013671875
	 1014322917
	 1014973958
	 1015625000
	 1016276042
	 1016927083
	 1017578125
	 1018229167
	 1018880208
	 1019531250
	 1020182292
	 1020833334
	 1021484375
	 1022135417
	 1022786459
	 1023437500
	 1024088542
	 1024739584
	 1025390625
	 1026041667
	 1026692709
	 1027343750
	 1027994792
	 1028645834
	 1029296875
	 1029947917
	 1030598959
	 1031250000
	 1031901042
	 1032552084
	 1033203125
	 1033854167
	 1034505209
	 1035156250
	 1035807292
	 1036458334
	 1037760417
	 1039062500
	 1040364584
	 1041666667
	 1042968750
	 1044270834
	 1045572917
	 1046875000
	 1048177084
	 1049479167
	 1050781250
	 1052083334
	 1053385417
	 1054687500
	 1055989584
	 1057291667
	 1058593750
	 1059895834
	 1061197917
	 1062500001
	 1063802084
	 1065104167
	 1066406251
	 1067708334
	 1069010417
	 1070312501
	 1071614584
	 1072916667
	 1074218751
	 1075520834
	 1076822917
	 1078125001
	 1079427084
	 1080729167
	 1082031251
	 1083333334
	 1085937501
	 1088541667
	 1091145834
	 1093750001
	 1096354167
	 1098958334
	 1101562501
	 1104166667
	 1106770834
	 1109375001
	 1111979167
	 1114583334
	 1117187501
	 1119791667
	 1122395834
	 1125000001
	 1127604167
	 1130208334
	 1132812500
	 1135416667
	 1138020834
	 1140625000
	 1143229167
	 1145833334
	 1148437500
	 1151041667
	 1153645834
	 1156250000
	 1158854167
	 1161458334
	 1164062500
	 1166666667
	 1169270834
	 1171875000
	 1174479167
	 1177083334
	 1179687500
	 1182291667
	 1184895834
	 1187500000
	 1190104167
	 1192708334
	 1195312500
	 1197916667
	 1200520834
	 1203125000
	 1205729167
	 1208333334
	 1210937500
	 1213541667
	 1216145833
	 1218750000
	 1221354167
	 1223958333
	 1226562500
	 1229166667
	 1231770833
	 1234375000
	 1236979167
	 1239583333
	 1242187500
	 1244791667
	 1247395833
	 1250000000
	 1252604167
	 1255208333
	 1257812500
	 1260416667
	 1263020833
	 1265625000
	 1268229167
	 1270833333
	 1276041667
	 1281250000
	 1286458333
	 1291666667
	 1296875000
	 1302083333
	 1307291666
	 1312500000
	 1317708333
	 1322916666
	 1328125000
	 1333333333
	 1338541666
	 1343750000
	 1348958333
	 1354166666
	 1359375000
	 1364583333
	 1369791666
	 1375000000
	 1380208333
	 1385416666
	 1390625000
	 1395833333
	 1401041666
	 1406250000
	 1411458333
	 1416666667
	 1421875000
	 1427083333
	 1432291667
	 1437500000
	 1442708333
	 1447916667
	 1453125000
	 1458333333
	 1463541667
	 1468750000
	 1473958333
	 1479166667
	 1484375000
	 1489583333
	 1494791667
	 1500000000
	 1505208333
	 1510416667
	 1515625000
	 1520833333
	 1526041667
	 1531250000
	 1536458333
	 1541666667
	 1546875000
	 1552083333
	 1557291667
	 1562500000
	 1567708333
	 1572916667
	 1578125000
	 1583333334
	 1588541667
	 1593750000
	 1598958334
	 1604166667
	 1609375000
	 1614583334
	 1619791667
	 1625000000
	 1630208334
	 1635416667
	 1640625000
	 1645833334
	 1651041667
	 1656250000
	 1661458334
	 1666666667
	 1670138889
	 1673611111
	 1677083334
	 1680555556
	 1684027778
	 1687500000
	 1690972223
	 1694444445
	 1697916667
	 1701388889
	 1704861111
	 1708333334
	 1711805556
	 1715277778
	 1718750000
	 1722222223
	 1725694445
	 1729166667
	 1732638889
	 1736111111
	 1739583334
	 1743055556
	 1746527778
	 1750000000
	 1753472222
	 1756944445
	 1760416667
	 1763888889
	 1767361111
	 1770833334
	 1774305556
	 1777777778
	 1784722222
	 1791666667
	 1798611111
	 1805555556
	 1812500000
	 1819444445
	 1826388889
	 1833333334
	 1840277778
	 1847222222
	 1854166667
	 1861111111
	 1868055556
	 1875000000
	 1881944445
	 1888888889
	 1907407408
	 1925925926
	 1944444445
	 1962962963
	 1972222222
	 1981481482
	 1990740741
	 2000000000
VAR_LIST_END

BEGIN
	-0.46773,	 0.11089
	-0.48097,	 0.13914
	-0.49232,	 0.16744
	-0.50183,	 0.19564
	-0.5096,	 0.22363
	-0.51572,	 0.25128
	-0.52029,	 0.2785
	-0.5234,	 0.30521
	-0.52516,	 0.33134
	-0.52565,	 0.35683
	-0.525,	 0.38164
	-0.52327,	 0.40572
	-0.52058,	 0.42907
	-0.517,	 0.45165
	-0.51261,	 0.47346
	-0.5075,	 0.49449
	-0.50174,	 0.51476
	-0.4954,	 0.53425
	-0.48853,	 0.55299
	-0.48121,	 0.57098
	-0.47347,	 0.58824
	-0.46538,	 0.6048
	-0.45698,	 0.62066
	-0.44831,	 0.63585
	-0.43941,	 0.65039
	-0.4303,	 0.6643
	-0.42104,	 0.6776
	-0.41163,	 0.69032
	-0.40212,	 0.70247
	-0.39251,	 0.71409
	-0.38284,	 0.72518
	-0.37312,	 0.73578
	-0.36337,	 0.74589
	-0.35359,	 0.75555
	-0.34382,	 0.76477
	-0.33405,	 0.77357
	-0.32431,	 0.78196
	-0.31459,	 0.78997
	-0.30491,	 0.79761
	-0.29527,	 0.8049
	-0.28568,	 0.81184
	-0.27615,	 0.81847
	-0.26667,	 0.82478
	-0.25727,	 0.8308
	-0.24793,	 0.83654
	-0.23866,	 0.842
	-0.22946,	 0.8472
	-0.22034,	 0.85216
	-0.2113,	 0.85688
	-0.20234,	 0.86137
	-0.19346,	 0.86564
	-0.18466,	 0.8697
	-0.17594,	 0.87356
	-0.1673,	 0.87723
	-0.15874,	 0.88071
	-0.15027,	 0.88402
	-0.14187,	 0.88716
	-0.12533,	 0.89295
	-0.10911,	 0.89815
	-0.093212,	 0.90278
	-0.077616,	 0.9069
	-0.062323,	 0.91055
	-0.047325,	 0.91375
	-0.032613,	 0.91655
	-0.01818,	 0.91896
	-0.0040158,	 0.92102
	 0.0098865,	 0.92274
	 0.023536,	 0.92415
	 0.03694,	 0.92528
	 0.050108,	 0.92613
	 0.063047,	 0.92672
	 0.075764,	 0.92707
	 0.088267,	 0.9272
	 0.10056,	 0.92711
	 0.11266,	 0.92682
	 0.12456,	 0.92634
	 0.13627,	 0.92567
	 0.14781,	 0.92483
	 0.15917,	 0.92383
	 0.17036,	 0.92268
	 0.18139,	 0.92137
	 0.19225,	 0.91993
	 0.20296,	 0.91835
	 0.21353,	 0.91664
	 0.22394,	 0.9148
	 0.23422,	 0.91285
	 0.24436,	 0.91078
	 0.25436,	 0.9086
	 0.26424,	 0.90632
	 0.27399,	 0.90393
	 0.28362,	 0.90145
	 0.29312,	 0.89887
	 0.30251,	 0.8962
	 0.32096,	 0.89059
	 0.33897,	 0.88465
	 0.35656,	 0.8784
	 0.37376,	 0.87186
	 0.39058,	 0.86503
	 0.40704,	 0.85793
	 0.42314,	 0.85058
	 0.43891,	 0.84299
	 0.45434,	 0.83516
	 0.46946,	 0.82711
	 0.48428,	 0.81884
	 0.49879,	 0.81037
	 0.51301,	 0.8017
	 0.52694,	 0.79283
	 0.5406,	 0.78378
	 0.55398,	 0.77455
	 0.5671,	 0.76515
	 0.57995,	 0.75557
	 0.59255,	 0.74583
	 0.60489,	 0.73593
	 0.61698,	 0.72588
	 0.62883,	 0.71567
	 0.64044,	 0.70532
	 0.6518,	 0.69482
	 0.66293,	 0.68419
	 0.67382,	 0.67342
	 0.68448,	 0.66252
	 0.69491,	 0.65149
	 0.70512,	 0.64034
	 0.71509,	 0.62906
	 0.72484,	 0.61767
	 0.73436,	 0.60617
	 0.74367,	 0.59455
	 0.75275,	 0.58282
	 0.76161,	 0.57099
	 0.77025,	 0.55905
	 0.77867,	 0.54702
	 0.78687,	 0.53489
	 0.79486,	 0.52267
	 0.80263,	 0.51035
	 0.81018,	 0.49795
	 0.81752,	 0.48547
	 0.82464,	 0.4729
	 0.83155,	 0.46025
	 0.83825,	 0.44753
	 0.84473,	 0.43473
	 0.851,	 0.42186
	 0.85705,	 0.40893
	 0.8629,	 0.39592
	 0.86853,	 0.38286
	 0.87395,	 0.36974
	 0.87915,	 0.35656
	 0.88415,	 0.34333
	 0.88893,	 0.33004
	 0.8935,	 0.31671
	 0.89786,	 0.30333
	 0.90201,	 0.28991
	 0.90595,	 0.27644
	 0.90968,	 0.26294
	 0.9132,	 0.24941
	 0.91651,	 0.23584
	 0.91961,	 0.22225
	 0.9225,	 0.20863
	 0.92517,	 0.19498
	 0.92765,	 0.18132
	 0.92991,	 0.16763
	 0.93196,	 0.15393
	 0.9338,	 0.14022
	 0.93544,	 0.1265
	 0.93687,	 0.11277
	 0.93809,	 0.099046
	 0.9391,	 0.085312
	 0.94051,	 0.057853
	 0.9411,	 0.030423
	 0.94086,	 0.0030437
	 0.93981,	-0.024262
	 0.93795,	-0.051471
	 0.93528,	-0.078561
	 0.93181,	-0.1055
	 0.92755,	-0.13229
	 0.9225,	-0.15889
	 0.91666,	-0.18528
	 0.91006,	-0.21144
	 0.90268,	-0.23734
	 0.89455,	-0.26297
	 0.88568,	-0.2883
	 0.87606,	-0.31331
	 0.86572,	-0.33798
	 0.85467,	-0.36229
	 0.84291,	-0.38621
	 0.83046,	-0.40973
	 0.81734,	-0.43282
	 0.80355,	-0.45546
	 0.78912,	-0.47764
	 0.77405,	-0.49933
	 0.75837,	-0.52051
	 0.74209,	-0.54117
	 0.72523,	-0.56129
	 0.7078,	-0.58084
	 0.68983,	-0.59982
	 0.67134,	-0.6182
	 0.65234,	-0.63597
	 0.63286,	-0.65312
	 0.61292,	-0.66962
	 0.59254,	-0.68546
	 0.57175,	-0.70064
	 0.55056,	-0.71514
	 0.529,	-0.72894
	 0.50709,	-0.74204
	 0.48487,	-0.75442
	 0.46235,	-0.76609
	 0.43956,	-0.77702
	 0.41653,	-0.78721
	 0.39328,	-0.79666
	 0.36984,	-0.80536
	 0.34624,	-0.8133
	 0.3225,	-0.82049
	 0.29865,	-0.82693
	 0.27472,	-0.8326
	 0.25073,	-0.83751
	 0.22671,	-0.84167
	 0.20269,	-0.84508
	 0.1787,	-0.84773
	 0.15476,	-0.84964
	 0.13091,	-0.8508
	 0.10715,	-0.85124
	 0.083535,	-0.85095
	 0.060069,	-0.84995
	 0.036786,	-0.84824
	 0.013709,	-0.84584
	-0.0091378,	-0.84275
	-0.031731,	-0.839
	-0.054048,	-0.8346
	-0.076066,	-0.82956
	-0.097765,	-0.8239
	-0.11912,	-0.81764
	-0.14012,	-0.81079
	-0.16074,	-0.80337
	-0.18097,	-0.79541
	-0.20079,	-0.78692
	-0.22018,	-0.77792
	-0.23913,	-0.76844
	-0.25762,	-0.7585
	-0.27565,	-0.74812
	-0.2932,	-0.73732
	-0.31026,	-0.72613
	-0.32682,	-0.71457
	-0.34288,	-0.70267
	-0.35331,	-0.69455
	-0.3635,	-0.6863
	-0.37347,	-0.67792
	-0.38321,	-0.66942
	-0.39271,	-0.6608
	-0.40199,	-0.65208
	-0.41103,	-0.64325
	-0.41984,	-0.63434
	-0.42841,	-0.62534
	-0.43676,	-0.61626
	-0.44487,	-0.60711
	-0.45276,	-0.59789
	-0.46041,	-0.58861
	-0.46784,	-0.57929
	-0.47504,	-0.56992
	-0.48202,	-0.56051
	-0.48878,	-0.55107
	-0.49531,	-0.5416
	-0.50163,	-0.53212
	-0.50774,	-0.52262
	-0.51363,	-0.51311
	-0.51931,	-0.50361
	-0.52479,	-0.4941
	-0.53007,	-0.48461
	-0.53515,	-0.47513
	-0.54003,	-0.46567
	-0.54473,	-0.45623
	-0.54924,	-0.44682
	-0.55356,	-0.43745
	-0.55771,	-0.42811
	-0.56169,	-0.41881
	-0.56549,	-0.40956
	-0.57262,	-0.39121
	-0.57914,	-0.37308
	-0.58508,	-0.35519
	-0.59048,	-0.33757
	-0.5954,	-0.32021
	-0.59987,	-0.30314
	-0.60394,	-0.28635
	-0.60764,	-0.26986
	-0.61103,	-0.25365
	-0.61413,	-0.23772
	-0.61698,	-0.22205
	-0.61963,	-0.20665
	-0.62211,	-0.19147
	-0.62444,	-0.17651
	-0.62666,	-0.16174
	-0.62878,	-0.14713
	-0.63414,	-0.10874
	-0.63922,	-0.070698
	-0.64406,	-0.032348
	-0.64846,	 0.006899
	-0.65039,	 0.027022
	-0.65206,	 0.047547
	-0.65339,	 0.068514
	-0.65431,	 0.08995
END
BEGIN
	-0.46773,	 0.11089
	-0.48097,	 0.13914
	-0.49232,	 0.16744
	-0.50183,	 0.19564
	-0.5096,	 0.22363
	-0.51572,	 0.25128
	-0.52029,	 0.2785
	-0.5234,	 0.30521
	-0.52516,	 0.33134
	-0.52565,	 0.35683
	-0.525,	 0.38164
	-0.52327,	 0.40572
	-0.52058,	 0.42907
	-0.517,	 0.45165
	-0.51261,	 0.47346
	-0.5075,	 0.49449
	-0.50174,	 0.51476
	-0.4954,	 0.53425
	-0.48853,	 0.55299
	-0.48121,	 0.57098
	-0.47347,	 0.58824
	-0.46538,	 0.6048
	-0.45698,	 0.62066
	-0.44831,	 0.63585
	-0.43941,	 0.65039
	-0.4303,	 0.6643
	-0.42104,	 0.6776
	-0.41163,	 0.69032
	-0.40212,	 0.70247
	-0.39251,	 0.71409
	-0.38284,	 0.72518
	-0.37312,	 0.73578
	-0.36337,	 0.74589
	-0.35359,	 0.75555
	-0.34382,	 0.76477
	-0.33405,	 0.77357
	-0.32431,	 0.78196
	-0.31459,	 0.78997
	-0.30491,	 0.79761
	-0.29527,	 0.8049
	-0.28568,	 0.81184
	-0.27615,	 0.81847
	-0.26667,	 0.82478
	-0.25727,	 0.8308
	-0.24793,	 0.83654
	-0.23866,	 0.842
	-0.22946,	 0.8472
	-0.22034,	 0.85216
	-0.2113,	 0.85688
	-0.20234,	 0.86137
	-0.19346,	 0.86564
	-0.18466,	 0.8697
	-0.17594,	 0.87356
	-0.1673,	 0.87723
	-0.15874,	 0.88071
	-0.15027,	 0.88402
	-0.14187,	 0.88716
	-0.12533,	 0.89295
	-0.10911,	 0.89815
	-0.093212,	 0.90278
	-0.077616,	 0.9069
	-0.062323,	 0.91055
	-0.047325,	 0.91375
	-0.032613,	 0.91655
	-0.01818,	 0.91896
	-0.0040158,	 0.92102
	 0.0098865,	 0.92274
	 0.023536,	 0.92415
	 0.03694,	 0.92528
	 0.050108,	 0.92613
	 0.063047,	 0.92672
	 0.075764,	 0.92707
	 0.088267,	 0.9272
	 0.10056,	 0.92711
	 0.11266,	 0.92682
	 0.12456,	 0.92634
	 0.13627,	 0.92567
	 0.14781,	 0.92483
	 0.15917,	 0.92383
	 0.17036,	 0.92268
	 0.18139,	 0.92137
	 0.19225,	 0.91993
	 0.20296,	 0.91835
	 0.21353,	 0.91664
	 0.22394,	 0.9148
	 0.23422,	 0.91285
	 0.24436,	 0.91078
	 0.25436,	 0.9086
	 0.26424,	 0.90632
	 0.27399,	 0.90393
	 0.28362,	 0.90145
	 0.29312,	 0.89887
	 0.30251,	 0.8962
	 0.32096,	 0.89059
	 0.33897,	 0.88465
	 0.35656,	 0.8784
	 0.37376,	 0.87186
	 0.39058,	 0.86503
	 0.40704,	 0.85793
	 0.42314,	 0.85058
	 0.43891,	 0.84299
	 0.45434,	 0.83516
	 0.46946,	 0.82711
	 0.48428,	 0.81884
	 0.49879,	 0.81037
	 0.51301,	 0.8017
	 0.52694,	 0.79283
	 0.5406,	 0.78378
	 0.55398,	 0.77455
	 0.5671,	 0.76515
	 0.57995,	 0.75557
	 0.59255,	 0.74583
	 0.60489,	 0.73593
	 0.61698,	 0.72588
	 0.62883,	 0.71567
	 0.64044,	 0.70532
	 0.6518,	 0.69482
	 0.66293,	 0.68419
	 0.67382,	 0.67342
	 0.68448,	 0.66252
	 0.69491,	 0.65149
	 0.70512,	 0.64034
	 0.71509,	 0.62906
	 0.72484,	 0.61767
	 0.73436,	 0.60617
	 0.74367,	 0.59455
	 0.75275,	 0.58282
	 0.76161,	 0.57099
	 0.77025,	 0.55905
	 0.77867,	 0.54702
	 0.78687,	 0.53489
	 0.79486,	 0.52267
	 0.80263,	 0.51035
	 0.81018,	 0.49795
	 0.81752,	 0.48547
	 0.82464,	 0.4729
	 0.83155,	 0.46025
	 0.83825,	 0.44753
	 0.84473,	 0.43473
	 0.851,	 0.42186
	 0.85705,	 0.40893
	 0.8629,	 0.39592
	 0.86853,	 0.38286
	 0.87395,	 0.36974
	 0.87915,	 0.35656
	 0.88415,	 0.34333
	 0.88893,	 0.33004
	 0.8935,	 0.31671
	 0.89786,	 0.30333
	 0.90201,	 0.28991
	 0.90595,	 0.27644
	 0.90968,	 0.26294
	 0.9132,	 0.24941
	 0.91651,	 0.23584
	 0.91961,	 0.22225
	 0.9225,	 0.20863
	 0.92517,	 0.19498
	 0.92765,	 0.18132
	 0.92991,	 0.16763
	 0.93196,	 0.15393
	 0.9338,	 0.14022
	 0.93544,	 0.1265
	 0.93687,	 0.11277
	 0.93809,	 0.099046
	 0.9391,	 0.085312
	 0.94051,	 0.057853
	 0.9411,	 0.030423
	 0.94086,	 0.0030437
	 0.93981,	-0.024262
	 0.93795,	-0.051471
	 0.93528,	-0.078561
	 0.93181,	-0.1055
	 0.92755,	-0.13229
	 0.9225,	-0.15889
	 0.91666,	-0.18528
	 0.91006,	-0.21144
	 0.90268,	-0.23734
	 0.89455,	-0.26297
	 0.88568,	-0.2883
	 0.87606,	-0.31331
	 0.86572,	-0.33798
	 0.85467,	-0.36229
	 0.84291,	-0.38621
	 0.83046,	-0.40973
	 0.81734,	-0.43282
	 0.80355,	-0.45546
	 0.78912,	-0.47764
	 0.77405,	-0.49933
	 0.75837,	-0.52051
	 0.74209,	-0.54117
	 0.72523,	-0.56129
	 0.7078,	-0.58084
	 0.68983,	-0.59982
	 0.67134,	-0.6182
	 0.65234,	-0.63597
	 0.63286,	-0.65312
	 0.61292,	-0.66962
	 0.59254,	-0.68546
	 0.57175,	-0.70064
	 0.55056,	-0.71514
	 0.529,	-0.72894
	 0.50709,	-0.74204
	 0.48487,	-0.75442
	 0.46235,	-0.76609
	 0.43956,	-0.77702
	 0.41653,	-0.78721
	 0.39328,	-0.79666
	 0.36984,	-0.80536
	 0.34624,	-0.8133
	 0.3225,	-0.82049
	 0.29865,	-0.82693
	 0.27472,	-0.8326
	 0.25073,	-0.83751
	 0.22671,	-0.84167
	 0.20269,	-0.84508
	 0.1787,	-0.84773
	 0.15476,	-0.84964
	 0.13091,	-0.8508
	 0.10715,	-0.85124
	 0.083535,	-0.85095
	 0.060069,	-0.84995
	 0.036786,	-0.84824
	 0.013709,	-0.84584
	-0.0091378,	-0.84275
	-0.031731,	-0.839
	-0.054048,	-0.8346
	-0.076066,	-0.82956
	-0.097765,	-0.8239
	-0.11912,	-0.81764
	-0.14012,	-0.81079
	-0.16074,	-0.80337
	-0.18097,	-0.79541
	-0.20079,	-0.78692
	-0.22018,	-0.77792
	-0.23913,	-0.76844
	-0.25762,	-0.7585
	-0.27565,	-0.74812
	-0.2932,	-0.73732
	-0.31026,	-0.72613
	-0.32682,	-0.71457
	-0.34288,	-0.70267
	-0.35331,	-0.69455
	-0.3635,	-0.6863
	-0.37347,	-0.67792
	-0.38321,	-0.66942
	-0.39271,	-0.6608
	-0.40199,	-0.65208
	-0.41103,	-0.64325
	-0.41984,	-0.63434
	-0.42841,	-0.62534
	-0.43676,	-0.61626
	-0.44487,	-0.60711
	-0.45276,	-0.59789
	-0.46041,	-0.58861
	-0.46784,	-0.57929
	-0.47504,	-0.56992
	-0.48202,	-0.56051
	-0.48878,	-0.55107
	-0.49531,	-0.5416
	-0.50163,	-0.53212
	-0.50774,	-0.52262
	-0.51363,	-0.51311
	-0.51931,	-0.50361
	-0.52479,	-0.4941
	-0.53007,	-0.48461
	-0.53515,	-0.47513
	-0.54003,	-0.46567
	-0.54473,	-0.45623
	-0.54924,	-0.44682
	-0.55356,	-0.43745
	-0.55771,	-0.42811
	-0.56169,	-0.41881
	-0.56549,	-0.40956
	-0.57262,	-0.39121
	-0.57914,	-0.37308
	-0.58508,	-0.35519
	-0.59048,	-0.33757
	-0.5954,	-0.32021
	-0.59987,	-0.30314
	-0.60394,	-0.28635
	-0.60764,	-0.26986
	-0.61103,	-0.25365
	-0.61413,	-0.23772
	-0.61698,	-0.22205
	-0.61963,	-0.20665
	-0.62211,	-0.19147
	-0.62444,	-0.17651
	-0.62666,	-0.16174
	-0.62878,	-0.14713
	-0.63414,	-0.10874
	-0.63922,	-0.070698
	-0.64406,	-0.032348
	-0.64846,	 0.006899
	-0.65039,	 0.027022
	-0.65206,	 0.047547
	-0.65339,	 0.068514
	-0.65431,	 0.08995
END
BEGIN
	-0.4227,	 0.11649
	-0.43618,	 0.14638
	-0.44757,	 0.17638
	-0.45695,	 0.20632
	-0.46442,	 0.23604
	-0.47006,	 0.26541
	-0.47399,	 0.29431
	-0.4763,	 0.32264
	-0.47712,	 0.35033
	-0.47656,	 0.37729
	-0.47473,	 0.40347
	-0.47173,	 0.42884
	-0.46767,	 0.45336
	-0.46266,	 0.47701
	-0.45678,	 0.49977
	-0.45013,	 0.52165
	-0.4428,	 0.54265
	-0.43485,	 0.56277
	-0.42637,	 0.58202
	-0.41742,	 0.60043
	-0.40806,	 0.61801
	-0.39836,	 0.63479
	-0.38836,	 0.65079
	-0.3781,	 0.66602
	-0.36764,	 0.68053
	-0.35701,	 0.69434
	-0.34624,	 0.70746
	-0.33537,	 0.71994
	-0.32442,	 0.73179
	-0.31343,	 0.74305
	-0.3024,	 0.75373
	-0.29137,	 0.76387
	-0.28034,	 0.77348
	-0.26934,	 0.7826
	-0.25838,	 0.79123
	-0.24747,	 0.79942
	-0.23662,	 0.80717
	-0.22583,	 0.8145
	-0.21513,	 0.82145
	-0.20451,	 0.82801
	-0.19397,	 0.83422
	-0.18353,	 0.84009
	-0.1732,	 0.84564
	-0.16296,	 0.85087
	-0.15282,	 0.85581
	-0.1428,	 0.86046
	-0.13288,	 0.86485
	-0.12307,	 0.86898
	-0.11337,	 0.87287
	-0.10378,	 0.87653
	-0.094309,	 0.87996
	-0.084942,	 0.88318
	-0.075685,	 0.8862
	-0.066539,	 0.88903
	-0.057501,	 0.89167
	-0.048572,	 0.89413
	-0.039749,	 0.89643
	-0.022422,	 0.90055
	-0.0055081,	 0.90407
	 0.011003,	 0.90705
	 0.027122,	 0.90954
	 0.042864,	 0.91157
	 0.058239,	 0.91318
	 0.073261,	 0.9144
	 0.087941,	 0.91526
	 0.10229,	 0.9158
	 0.11632,	 0.91602
	 0.13005,	 0.91596
	 0.14349,	 0.91564
	 0.15665,	 0.91507
	 0.16953,	 0.91427
	 0.18215,	 0.91325
	 0.19452,	 0.91204
	 0.20664,	 0.91064
	 0.21853,	 0.90906
	 0.2302,	 0.90731
	 0.24165,	 0.90541
	 0.25288,	 0.90336
	 0.26392,	 0.90118
	 0.27476,	 0.89886
	 0.28541,	 0.89642
	 0.29588,	 0.89386
	 0.30617,	 0.8912
	 0.31629,	 0.88842
	 0.32624,	 0.88554
	 0.33603,	 0.88257
	 0.34567,	 0.87951
	 0.35516,	 0.87636
	 0.3645,	 0.87313
	 0.3737,	 0.86981
	 0.38276,	 0.86642
	 0.39169,	 0.86296
	 0.40049,	 0.85943
	 0.4177,	 0.85216
	 0.43443,	 0.84464
	 0.45071,	 0.83688
	 0.46655,	 0.82891
	 0.48197,	 0.82073
	 0.497,	 0.81237
	 0.51164,	 0.80382
	 0.52591,	 0.79509
	 0.53984,	 0.78621
	 0.55342,	 0.77717
	 0.56667,	 0.76799
	 0.5796,	 0.75867
	 0.59223,	 0.74921
	 0.60455,	 0.73963
	 0.61659,	 0.72993
	 0.62834,	 0.72011
	 0.63982,	 0.71018
	 0.65103,	 0.70014
	 0.66198,	 0.69
	 0.67267,	 0.67976
	 0.6831,	 0.66942
	 0.6933,	 0.65899
	 0.70325,	 0.64848
	 0.71296,	 0.63788
	 0.72244,	 0.62719
	 0.73169,	 0.61643
	 0.74071,	 0.60559
	 0.74952,	 0.59468
	 0.7581,	 0.5837
	 0.76647,	 0.57265
	 0.77462,	 0.56154
	 0.78257,	 0.55036
	 0.7903,	 0.53912
	 0.79784,	 0.52783
	 0.80516,	 0.51648
	 0.81229,	 0.50507
	 0.81922,	 0.49362
	 0.82595,	 0.48211
	 0.83248,	 0.47056
	 0.83883,	 0.45896
	 0.84497,	 0.44732
	 0.85093,	 0.43563
	 0.85671,	 0.42391
	 0.86229,	 0.41215
	 0.86769,	 0.40036
	 0.8729,	 0.38853
	 0.87793,	 0.37667
	 0.88278,	 0.36478
	 0.88745,	 0.35286
	 0.89194,	 0.34092
	 0.89624,	 0.32895
	 0.90038,	 0.31696
	 0.90433,	 0.30495
	 0.90811,	 0.29292
	 0.91172,	 0.28087
	 0.91515,	 0.2688
	 0.91841,	 0.25673
	 0.9215,	 0.24463
	 0.92441,	 0.23253
	 0.92716,	 0.22042
	 0.92974,	 0.2083
	 0.93214,	 0.19618
	 0.93438,	 0.18405
	 0.93646,	 0.17192
	 0.93837,	 0.15978
	 0.94011,	 0.14765
	 0.94168,	 0.13552
	 0.9431,	 0.12339
	 0.94434,	 0.11127
	 0.94543,	 0.09916
	 0.94635,	 0.087053
	 0.94711,	 0.074956
	 0.94815,	 0.050798
	 0.94856,	 0.026699
	 0.94832,	 0.00267
	 0.94746,	-0.021276
	 0.94597,	-0.045126
	 0.94386,	-0.068868
	 0.94113,	-0.092491
	 0.9378,	-0.11597
	 0.93385,	-0.13932
	 0.9293,	-0.1625
	 0.92416,	-0.18552
	 0.91842,	-0.20835
	 0.91209,	-0.23099
	 0.90518,	-0.25342
	 0.89769,	-0.27562
	 0.88962,	-0.2976
	 0.88099,	-0.31932
	 0.8718,	-0.34079
	 0.86204,	-0.36198
	 0.85174,	-0.38288
	 0.84089,	-0.40348
	 0.82951,	-0.42376
	 0.81761,	-0.44371
	 0.80518,	-0.46332
	 0.79223,	-0.48257
	 0.77878,	-0.50144
	 0.76483,	-0.51994
	 0.7504,	-0.53804
	 0.73548,	-0.55572
	 0.72009,	-0.57299
	 0.70425,	-0.58981
