CITIFILE A.01.01
#Momentum: B.08.00.182 (*) 331.200 May  5 2008 
#Momentum Date and Time: Wed Apr 28 14:11:37 2010

NAME PortSet1/TwoP0_Dsolver_data/first_odd_mode_is_1/most_even_mode_is_1/PMLG4/LS0

CONSTANT NBR_OF_PORTS 2

VAR freq MAG 6

DATA GAMMA_1[1] RI
DATA GAMMA_1[2] RI
DATA Z0_1[1,1] RI
DATA Z0_1[1,2] RI
DATA Z0_1[2,1] RI
DATA Z0_1[2,2] RI
DATA LAMBADAI_1[1,1] RI
DATA LAMBADAI_1[1,2] RI
DATA LAMBADAI_1[2,1] RI
DATA LAMBADAI_1[2,2] RI
DATA Zcir_1[1,1] RI
DATA Zcir_1[1,2] RI
DATA Zcir_1[2,1] RI
DATA Zcir_1[2,2] RI
DATA Ycir_1[1,1] RI
DATA Ycir_1[1,2] RI
DATA Ycir_1[2,1] RI
DATA Ycir_1[2,2] RI

VAR_LIST_BEGIN
	 1300000000
	 1313000000
	 1326000000
	 1339000000
	 1471795428
	 1700000000
VAR_LIST_END

BEGIN
	-0,	 27.60202153
	-0,	 27.87990867
	-0,	 28.15783397
	-0,	 28.43579937
	-0,	 31.27754295
	-0,	 36.1712555
END
BEGIN
	-0,	 41.88521179
	-0,	 42.29927915
	-0,	 42.71322961
	-0,	 43.12727464
	-0,	 47.35650295
	-0,	 54.62508803
END
BEGIN
	 165.8947788,	 0
	 165.3050653,	 0
	 164.722611,	 0
	 164.146749,	 0
	 158.6587834,	 0
	 150.5933566,	 0
END
BEGIN
	 107.5997888,	 0
	 107.030109,	 0
	 106.4672689,	 0
	 105.9110001,	 0
	 100.6106304,	 0
	 92.82265833,	 0
END
BEGIN
	 107.5997888,	 0
	 107.030109,	 0
	 106.4672689,	 0
	 105.9110001,	 0
	 100.6106304,	 0
	 92.82265833,	 0
END
BEGIN
	 105.7478308,	 0
	 105.1833929,	 0
	 104.6257326,	 0
	 104.0745814,	 0
	 98.8220629,	 0
	 91.10057033,	 0
END
BEGIN
	 0,	 41.5128712
	 0,	 41.9233379
	 0,	 42.33369244
	 0,	 42.7441418
	 0,	 46.93681111
	 0,	 54.14345238
END
BEGIN
	 0,	-0.3611431884
	 0,	-0.3645954765
	 0,	-0.3680424771
	 0,	-0.3714885703
	 0,	-0.4064858808
	 0,	-0.4656078997
END
BEGIN
	 0,	-14.34216168
	 0,	-14.48044378
	 0,	-14.6185984
	 0,	-14.75683587
	 0,	-16.16800832
	 0,	-18.59085886
END
BEGIN
	 0,	 27.97436212
	 0,	 28.25584992
	 0,	 28.53737113
	 0,	 28.8189322
	 0,	 31.69723479
	 0,	 36.65289115
END
BEGIN
	-1.159157477e-017,	 1.736506593e-009
	 1.056350551e-017,	 1.731135243e-009
	 3.10605042e-018,	 1.725829661e-009
	 5.03246648e-018,	 1.720585798e-009
	 1.645962567e-018,	 1.67064712e-009
	-1.939254267e-018,	 1.597408025e-009
END
BEGIN
	-4.583441167e-019,	 9.587080546e-010
	-1.088203456e-018,	 9.536668977e-010
	 6.434882147e-018,	 9.486864504e-010
	-1.570299932e-018,	 9.437643496e-010
	-3.521808123e-018,	 8.968804698e-010
	 8.009061574e-018,	 8.280542357e-010
END
BEGIN
	-4.583441167e-019,	 9.587080546e-010
	-1.088203456e-018,	 9.536668977e-010
	 6.434882147e-018,	 9.486864504e-010
	-1.570299932e-018,	 9.437643496e-010
	-3.521808123e-018,	 8.968804698e-010
	 8.009061574e-018,	 8.280542357e-010
END
BEGIN
	-7.245430978e-019,	 9.487136964e-010
	-7.611369852e-019,	 9.437138217e-010
	 6.151127333e-018,	 9.387741109e-010
	-1.355117864e-018,	 9.338922285e-010
	-3.278189995e-018,	 8.87380347e-010
	 7.48647767e-018,	 8.190530205e-010
END
BEGIN
	 5.088461522e-016,	 3.424182378e-008
	-5.350416298e-016,	 3.424690558e-008
	 1.616510653e-016,	 3.425175549e-008
	-3.048757415e-016,	 3.425678422e-008
	-2.432752683e-016,	 3.430699838e-008
	 4.743818844e-016,	 3.438935213e-008
END
BEGIN
	-5.243928288e-016,	-3.499901226e-008
	 5.519410233e-016,	-3.500647096e-008
	-1.687184648e-016,	-3.501368884e-008
	 3.148827796e-016,	-3.502108731e-008
	 2.523853872e-016,	-3.509548567e-008
	-4.939472895e-016,	-3.521968002e-008
END
BEGIN
	-5.243928288e-016,	-3.499901226e-008
	 5.519410233e-016,	-3.500647096e-008
	-1.687184648e-016,	-3.501368884e-008
	 3.148827796e-016,	-3.502108731e-008
	 2.523853872e-016,	-3.509548567e-008
	-4.939472895e-016,	-3.521968002e-008
END
BEGIN
	 5.495236294e-016,	 4.781296854e-008
	-5.595048541e-016,	 4.78883338e-008
	 9.623305742e-017,	 4.796336734e-008
	-3.073918891e-016,	 4.803851983e-008
	-2.141038499e-016,	 4.879752019e-008
	 3.860573453e-016,	 5.007565814e-008
END
