CITIFILE A.01.01
#Momentum: B.08.00.182 (*) 331.200 May  5 2008 
#Momentum Date and Time: Wed Apr 28 11:02:33 2010

NAME Momentum.SP

#  mode: MW    project: C:\Users\APLPrj02\AppData\Local\Temp\12926047\proj    reference: S_50

CONSTANT NBR_OF_PORTS 1

CONSTANT NORMALIZATION 1

VAR freq MAG 10

DATA S[1,1] RI
DATA S_50[1,1] RI
DATA S_Z0[1,1] RI
DATA GAMMA[1] RI
DATA Z0[1] RI
DATA PORTZ[1] RI

VAR_LIST_BEGIN
	 1000000000
	 1041666667
	 1083333334
	 1166666667
	 1333333333
	 1500000000
	 1666666667
	 1888888889
	 1962962963
	 2000000000
VAR_LIST_END

BEGIN
	-0.467732562,	 0.110894385
	-0.0776161668,	 0.906909014
	 0.302518234,	 0.896201062
	 0.734368558,	 0.606170141
	 0.902688259,	-0.237345133
	 0.346242362,	-0.8133081
	-0.342888537,	-0.702673331
	-0.628784903,	-0.147137177
	-0.648469283,	 0.0068990027
	-0.654311473,	 0.0899496247
END
BEGIN
	-0.467732562,	 0.110894385
	-0.0776161668,	 0.906909014
	 0.302518234,	 0.896201062
	 0.734368558,	 0.606170141
	 0.902688259,	-0.237345133
	 0.346242362,	-0.8133081
	-0.342888537,	-0.702673331
	-0.628784903,	-0.147137177
	-0.648469283,	 0.0068990027
	-0.654311473,	 0.0899496247
END
BEGIN
	-0.422706731,	 0.11649294
	 0.0271224272,	 0.909546018
	 0.400490014,	 0.859431177
	 0.78257349,	 0.5503668
	 0.918421796,	-0.208358186
	 0.461942557,	-0.76262023
	-0.217033242,	-0.738016899
	-0.563743289,	-0.1652826
	-0.586253629,	 0.00781347583
	-0.590815805,	 0.102188176
END
BEGIN
	 5.43921081e-027,	 30.7098397
	 4.70361376e-021,	 31.9930614
	 4.25692669e-020,	 33.2767144
	 6.04860011e-022,	 35.8453052
	 2.23444017e-021,	 40.9774719
	 8.45573618e-020,	 46.125691
	 1.06608375e-019,	 51.2994622
	 1.45764407e-019,	 58.1902812
	 1.2592144e-019,	 60.4917668
	 3.56843612e-026,	 61.6432668
END
BEGIN
	 44.7658414,	 5.50121512e-017
	 44.5779597,	 1.28941378e-016
	 44.3921253,	 3.54252481e-016
	 44.0275641,	 8.95768901e-017
	 43.3371364,	 7.57991007e-017
	 42.6586232,	 1.10747148e-016
	 41.9838509,	 9.999425e-017
	 41.1494469,	-1.66961813e-016
	 40.8788355,	-8.60903348e-018
	 40.7455543,	 9.8772864e-017
END
BEGIN
	 50,	 0
	 50,	 0
	 50,	 0
	 50,	 0
	 50,	 0
	 50,	 0
	 50,	 0
	 50,	 0
	 50,	 0
	 50,	 0
END
